# vsim -c tb_top -do "run -all; quit -f" 
# Start time: 09:07:18 on May 20,2026
# ** Note: (vsim-8009) Loading existing optimized design _opt
# //  Questa Sim-64
# //  Version 10.6b linux_x86_64 May 25 2017
# //
# //  Copyright 1991-2017 Mentor Graphics Corporation
# //  All Rights Reserved.
# //
# //  QuestaSim and its associated documentation contain trade
# //  secrets and commercial or financial information that are the property of
# //  Mentor Graphics Corporation and are privileged, confidential,
# //  and exempt from disclosure under the Freedom of Information Act,
# //  5 U.S.C. Section 552. Furthermore, this information
# //  is prohibited from disclosure under the Trade Secrets Act,
# //  18 U.S.C. Section 1905.
# //
# Loading sv_std.std
# Loading work.apb_if(fast)
# Loading mtiUvm.uvm_pkg
# Loading work.apb_pkg(fast)
# Loading work.apb_if_sv_unit(fast)
# Loading work.tb_top(fast)
# Loading work.apb_if(fast)
# Loading work.apb_sram(fast)
# Loading mtiUvm.questa_uvm_pkg(fast)
# Loading /cadtools/mentor/Questa_10.6b/questasim/uvm-1.1d/linux_x86_64/uvm_dpi.so
# run -all
# ----------------------------------------------------------------
# UVM-1.1d
# (C) 2007-2013 Mentor Graphics Corporation
# (C) 2007-2013 Cadence Design Systems, Inc.
# (C) 2006-2013 Synopsys, Inc.
# (C) 2011-2013 Cypress Semiconductor Corp.
# ----------------------------------------------------------------
# 
#   ***********       IMPORTANT RELEASE NOTES         ************
# 
#   You are using a version of the UVM library that has been compiled
#   with `UVM_NO_DEPRECATED undefined.
#   See http://www.eda.org/svdb/view.php?id=3313 for more details.
# 
#   You are using a version of the UVM library that has been compiled
#   with `UVM_OBJECT_MUST_HAVE_CONSTRUCTOR undefined.
#   See http://www.eda.org/svdb/view.php?id=3770 for more details.
# 
#       (Specify +UVM_NO_RELNOTES to turn off this notice)
# 
# UVM_INFO verilog_src/questa_uvm_pkg-1.2/src/questa_uvm_pkg.sv(215) @ 0: reporter [Questa UVM] QUESTA_UVM-1.2.3
# UVM_INFO verilog_src/questa_uvm_pkg-1.2/src/questa_uvm_pkg.sv(217) @ 0: reporter [Questa UVM]  questa_uvm::init(+struct)
# UVM_INFO ../tb/tb_top.sv(48) @ 0: reporter [TB_TOP] Starting APB UVM Testbench
# UVM_INFO @ 0: reporter [RNTST] Running test apb_base_test...
# UVM_INFO ../test/apb_base_test.sv(34) @ 0: uvm_test_top [apb_base_test] Build phase completed
# UVM_INFO ../env/apb_env.sv(36) @ 0: uvm_test_top.env [apb_env] Build phase completed
# UVM_INFO ../env/apb_agent/apb_agent.sv(43) @ 0: uvm_test_top.env.agent [AGT] No is_active config, defaulting to UVM_ACTIVE
# UVM_INFO ../env/apb_env.sv(47) @ 0: uvm_test_top.env [apb_env] Connect phase completed - Monitor connected to Scoreboard
# UVM_INFO ../env/apb_agent/apb_agent.sv(72) @ 0: uvm_test_top.env.agent [apb_agent] Agent Mode:  ACTIVE
# UVM_INFO ../test/apb_base_test.sv(41) @ 0: uvm_test_top [apb_base_test] ==============START APB TEST =================
# UVM_INFO ../env/apb_agent/apb_monitor.sv(45) @ 35000: uvm_test_top.env.agent.monitor [apb_monitor] Monitor started after reset
# UVM_INFO ../env/apb_agent/apb_monitor.sv(81) @ 135000: uvm_test_top.env.agent.monitor [apb_monitor] Collected: T#0 | UNKNOWN_SEQ | ADDR=0x00000140 WRITE=1 DATA=0xfbe926df RDATA=0x00000000 SLVERR=0
# UVM_INFO ../seq/apb_wr_rd_seq.sv(41) @ 135000: uvm_test_top.env.agent.sequencer@@wr_rd_seq [apb_wr_rd_seq] WRITE: ADDR=0x00000140 DATA=0xfbe926df
# UVM_INFO ../env/apb_agent/apb_monitor.sv(81) @ 175000: uvm_test_top.env.agent.monitor [apb_monitor] Collected: T#0 | UNKNOWN_SEQ | ADDR=0x00000140 WRITE=0 DATA=0xfbe926df RDATA=0xfbe926df SLVERR=0
# UVM_INFO ../env/apb_scoreboard.sv(73) @ 175000: uvm_test_top.env.scoreboard [apb_scoreboard] T#2 [READ PASS] ADDR=0x00000140 RDATA=0xfbe926df
# UVM_INFO ../seq/apb_wr_rd_seq.sv(56) @ 175000: uvm_test_top.env.agent.sequencer@@wr_rd_seq [apb_wr_rd_seq] READ : ADDR=0x00000140 RDATA=0xfbe926df
# UVM_INFO ../env/apb_agent/apb_monitor.sv(81) @ 215000: uvm_test_top.env.agent.monitor [apb_monitor] Collected: T#0 | UNKNOWN_SEQ | ADDR=0x00000184 WRITE=1 DATA=0x1ece0459 RDATA=0xfbe926df SLVERR=0
# UVM_INFO ../seq/apb_wr_rd_seq.sv(41) @ 215000: uvm_test_top.env.agent.sequencer@@wr_rd_seq [apb_wr_rd_seq] WRITE: ADDR=0x00000184 DATA=0x1ece0459
# UVM_INFO ../env/apb_agent/apb_monitor.sv(81) @ 325000: uvm_test_top.env.agent.monitor [apb_monitor] Collected: T#0 | UNKNOWN_SEQ | ADDR=0x00000184 WRITE=0 DATA=0x1ece0459 RDATA=0x1ece0459 SLVERR=0
# UVM_INFO ../env/apb_scoreboard.sv(73) @ 325000: uvm_test_top.env.scoreboard [apb_scoreboard] T#4 [READ PASS] ADDR=0x00000184 RDATA=0x1ece0459
# UVM_INFO ../seq/apb_wr_rd_seq.sv(56) @ 325000: uvm_test_top.env.agent.sequencer@@wr_rd_seq [apb_wr_rd_seq] READ : ADDR=0x00000184 RDATA=0x1ece0459
# UVM_INFO ../env/apb_agent/apb_monitor.sv(81) @ 425000: uvm_test_top.env.agent.monitor [apb_monitor] Collected: T#0 | UNKNOWN_SEQ | ADDR=0x00000324 WRITE=1 DATA=0x1a9e77fa RDATA=0x1ece0459 SLVERR=0
# UVM_INFO ../seq/apb_wr_rd_seq.sv(41) @ 425000: uvm_test_top.env.agent.sequencer@@wr_rd_seq [apb_wr_rd_seq] WRITE: ADDR=0x00000324 DATA=0x1a9e77fa
# UVM_INFO ../env/apb_agent/apb_monitor.sv(81) @ 485000: uvm_test_top.env.agent.monitor [apb_monitor] Collected: T#0 | UNKNOWN_SEQ | ADDR=0x00000324 WRITE=0 DATA=0x1a9e77fa RDATA=0x1a9e77fa SLVERR=0
# UVM_INFO ../env/apb_scoreboard.sv(73) @ 485000: uvm_test_top.env.scoreboard [apb_scoreboard] T#6 [READ PASS] ADDR=0x00000324 RDATA=0x1a9e77fa
# UVM_INFO ../seq/apb_wr_rd_seq.sv(56) @ 485000: uvm_test_top.env.agent.sequencer@@wr_rd_seq [apb_wr_rd_seq] READ : ADDR=0x00000324 RDATA=0x1a9e77fa
# UVM_INFO ../env/apb_agent/apb_monitor.sv(81) @ 535000: uvm_test_top.env.agent.monitor [apb_monitor] Collected: T#0 | UNKNOWN_SEQ | ADDR=0x0000030c WRITE=1 DATA=0x8253057f RDATA=0x1a9e77fa SLVERR=0
# UVM_INFO ../seq/apb_wr_rd_seq.sv(41) @ 535000: uvm_test_top.env.agent.sequencer@@wr_rd_seq [apb_wr_rd_seq] WRITE: ADDR=0x0000030c DATA=0x8253057f
# UVM_INFO ../env/apb_agent/apb_monitor.sv(81) @ 615000: uvm_test_top.env.agent.monitor [apb_monitor] Collected: T#0 | UNKNOWN_SEQ | ADDR=0x0000030c WRITE=0 DATA=0x8253057f RDATA=0x8253057f SLVERR=0
# UVM_INFO ../env/apb_scoreboard.sv(73) @ 615000: uvm_test_top.env.scoreboard [apb_scoreboard] T#8 [READ PASS] ADDR=0x0000030c RDATA=0x8253057f
# UVM_INFO ../seq/apb_wr_rd_seq.sv(56) @ 615000: uvm_test_top.env.agent.sequencer@@wr_rd_seq [apb_wr_rd_seq] READ : ADDR=0x0000030c RDATA=0x8253057f
# UVM_INFO ../env/apb_agent/apb_monitor.sv(81) @ 685000: uvm_test_top.env.agent.monitor [apb_monitor] Collected: T#0 | UNKNOWN_SEQ | ADDR=0x000002a0 WRITE=1 DATA=0x661def78 RDATA=0x8253057f SLVERR=0
# UVM_INFO ../seq/apb_wr_rd_seq.sv(41) @ 685000: uvm_test_top.env.agent.sequencer@@wr_rd_seq [apb_wr_rd_seq] WRITE: ADDR=0x000002a0 DATA=0x661def78
# UVM_INFO ../env/apb_agent/apb_monitor.sv(81) @ 725000: uvm_test_top.env.agent.monitor [apb_monitor] Collected: T#0 | UNKNOWN_SEQ | ADDR=0x000002a0 WRITE=0 DATA=0x661def78 RDATA=0x661def78 SLVERR=0
# UVM_INFO ../env/apb_scoreboard.sv(73) @ 725000: uvm_test_top.env.scoreboard [apb_scoreboard] T#10 [READ PASS] ADDR=0x000002a0 RDATA=0x661def78
# UVM_INFO ../seq/apb_wr_rd_seq.sv(56) @ 725000: uvm_test_top.env.agent.sequencer@@wr_rd_seq [apb_wr_rd_seq] READ : ADDR=0x000002a0 RDATA=0x661def78
# UVM_INFO ../env/apb_agent/apb_monitor.sv(81) @ 785000: uvm_test_top.env.agent.monitor [apb_monitor] Collected: T#0 | UNKNOWN_SEQ | ADDR=0x0000010c WRITE=1 DATA=0x194b06c6 RDATA=0x661def78 SLVERR=0
# UVM_INFO ../seq/apb_wr_rd_seq.sv(41) @ 785000: uvm_test_top.env.agent.sequencer@@wr_rd_seq [apb_wr_rd_seq] WRITE: ADDR=0x0000010c DATA=0x194b06c6
# UVM_INFO ../env/apb_agent/apb_monitor.sv(81) @ 845000: uvm_test_top.env.agent.monitor [apb_monitor] Collected: T#0 | UNKNOWN_SEQ | ADDR=0x0000010c WRITE=0 DATA=0x194b06c6 RDATA=0x194b06c6 SLVERR=0
# UVM_INFO ../env/apb_scoreboard.sv(73) @ 845000: uvm_test_top.env.scoreboard [apb_scoreboard] T#12 [READ PASS] ADDR=0x0000010c RDATA=0x194b06c6
# UVM_INFO ../seq/apb_wr_rd_seq.sv(56) @ 845000: uvm_test_top.env.agent.sequencer@@wr_rd_seq [apb_wr_rd_seq] READ : ADDR=0x0000010c RDATA=0x194b06c6
# UVM_INFO ../env/apb_agent/apb_monitor.sv(81) @ 905000: uvm_test_top.env.agent.monitor [apb_monitor] Collected: T#0 | UNKNOWN_SEQ | ADDR=0x000003dc WRITE=1 DATA=0xcc6c05ab RDATA=0x194b06c6 SLVERR=0
# UVM_INFO ../seq/apb_wr_rd_seq.sv(41) @ 905000: uvm_test_top.env.agent.sequencer@@wr_rd_seq [apb_wr_rd_seq] WRITE: ADDR=0x000003dc DATA=0xcc6c05ab
# UVM_INFO ../env/apb_agent/apb_monitor.sv(81) @ 955000: uvm_test_top.env.agent.monitor [apb_monitor] Collected: T#0 | UNKNOWN_SEQ | ADDR=0x000003dc WRITE=0 DATA=0xcc6c05ab RDATA=0xcc6c05ab SLVERR=0
# UVM_INFO ../env/apb_scoreboard.sv(73) @ 955000: uvm_test_top.env.scoreboard [apb_scoreboard] T#14 [READ PASS] ADDR=0x000003dc RDATA=0xcc6c05ab
# UVM_INFO ../seq/apb_wr_rd_seq.sv(56) @ 955000: uvm_test_top.env.agent.sequencer@@wr_rd_seq [apb_wr_rd_seq] READ : ADDR=0x000003dc RDATA=0xcc6c05ab
# UVM_INFO ../env/apb_agent/apb_monitor.sv(81) @ 995000: uvm_test_top.env.agent.monitor [apb_monitor] Collected: T#0 | UNKNOWN_SEQ | ADDR=0x000000d0 WRITE=1 DATA=0xdbf3cea6 RDATA=0xcc6c05ab SLVERR=0
# UVM_INFO ../seq/apb_wr_rd_seq.sv(41) @ 995000: uvm_test_top.env.agent.sequencer@@wr_rd_seq [apb_wr_rd_seq] WRITE: ADDR=0x000000d0 DATA=0xdbf3cea6
# UVM_INFO ../env/apb_agent/apb_monitor.sv(81) @ 1085000: uvm_test_top.env.agent.monitor [apb_monitor] Collected: T#0 | UNKNOWN_SEQ | ADDR=0x000000d0 WRITE=0 DATA=0xdbf3cea6 RDATA=0xdbf3cea6 SLVERR=0
# UVM_INFO ../env/apb_scoreboard.sv(73) @ 1085000: uvm_test_top.env.scoreboard [apb_scoreboard] T#16 [READ PASS] ADDR=0x000000d0 RDATA=0xdbf3cea6
# UVM_INFO ../seq/apb_wr_rd_seq.sv(56) @ 1085000: uvm_test_top.env.agent.sequencer@@wr_rd_seq [apb_wr_rd_seq] READ : ADDR=0x000000d0 RDATA=0xdbf3cea6
# UVM_INFO ../env/apb_agent/apb_monitor.sv(81) @ 1125000: uvm_test_top.env.agent.monitor [apb_monitor] Collected: T#0 | UNKNOWN_SEQ | ADDR=0x00000064 WRITE=1 DATA=0x7bc94842 RDATA=0xdbf3cea6 SLVERR=0
# UVM_INFO ../seq/apb_wr_rd_seq.sv(41) @ 1125000: uvm_test_top.env.agent.sequencer@@wr_rd_seq [apb_wr_rd_seq] WRITE: ADDR=0x00000064 DATA=0x7bc94842
# UVM_INFO ../env/apb_agent/apb_monitor.sv(81) @ 1215000: uvm_test_top.env.agent.monitor [apb_monitor] Collected: T#0 | UNKNOWN_SEQ | ADDR=0x00000064 WRITE=0 DATA=0x7bc94842 RDATA=0x7bc94842 SLVERR=0
# UVM_INFO ../env/apb_scoreboard.sv(73) @ 1215000: uvm_test_top.env.scoreboard [apb_scoreboard] T#18 [READ PASS] ADDR=0x00000064 RDATA=0x7bc94842
# UVM_INFO ../seq/apb_wr_rd_seq.sv(56) @ 1215000: uvm_test_top.env.agent.sequencer@@wr_rd_seq [apb_wr_rd_seq] READ : ADDR=0x00000064 RDATA=0x7bc94842
# UVM_INFO ../env/apb_agent/apb_monitor.sv(81) @ 1285000: uvm_test_top.env.agent.monitor [apb_monitor] Collected: T#0 | UNKNOWN_SEQ | ADDR=0x00000074 WRITE=1 DATA=0x10d0b823 RDATA=0x7bc94842 SLVERR=0
# UVM_INFO ../seq/apb_wr_rd_seq.sv(41) @ 1285000: uvm_test_top.env.agent.sequencer@@wr_rd_seq [apb_wr_rd_seq] WRITE: ADDR=0x00000074 DATA=0x10d0b823
# UVM_INFO ../env/apb_agent/apb_monitor.sv(81) @ 1365000: uvm_test_top.env.agent.monitor [apb_monitor] Collected: T#0 | UNKNOWN_SEQ | ADDR=0x00000074 WRITE=0 DATA=0x10d0b823 RDATA=0x10d0b823 SLVERR=0
# UVM_INFO ../env/apb_scoreboard.sv(73) @ 1365000: uvm_test_top.env.scoreboard [apb_scoreboard] T#20 [READ PASS] ADDR=0x00000074 RDATA=0x10d0b823
# UVM_INFO ../seq/apb_wr_rd_seq.sv(56) @ 1365000: uvm_test_top.env.agent.sequencer@@wr_rd_seq [apb_wr_rd_seq] READ : ADDR=0x00000074 RDATA=0x10d0b823
# UVM_INFO ../env/apb_agent/apb_monitor.sv(81) @ 1415000: uvm_test_top.env.agent.monitor [apb_monitor] Collected: T#0 | UNKNOWN_SEQ | ADDR=0x00000298 WRITE=1 DATA=0x2b6e3fde RDATA=0x10d0b823 SLVERR=0
# UVM_INFO ../seq/apb_wr_rd_seq.sv(41) @ 1415000: uvm_test_top.env.agent.sequencer@@wr_rd_seq [apb_wr_rd_seq] WRITE: ADDR=0x00000298 DATA=0x2b6e3fde
# UVM_INFO ../env/apb_agent/apb_monitor.sv(81) @ 1455000: uvm_test_top.env.agent.monitor [apb_monitor] Collected: T#0 | UNKNOWN_SEQ | ADDR=0x00000298 WRITE=0 DATA=0x2b6e3fde RDATA=0x2b6e3fde SLVERR=0
# UVM_INFO ../env/apb_scoreboard.sv(73) @ 1455000: uvm_test_top.env.scoreboard [apb_scoreboard] T#22 [READ PASS] ADDR=0x00000298 RDATA=0x2b6e3fde
# UVM_INFO ../seq/apb_wr_rd_seq.sv(56) @ 1455000: uvm_test_top.env.agent.sequencer@@wr_rd_seq [apb_wr_rd_seq] READ : ADDR=0x00000298 RDATA=0x2b6e3fde
# UVM_INFO ../env/apb_agent/apb_monitor.sv(81) @ 1505000: uvm_test_top.env.agent.monitor [apb_monitor] Collected: T#0 | UNKNOWN_SEQ | ADDR=0x00000344 WRITE=1 DATA=0xb0a4374e RDATA=0x2b6e3fde SLVERR=0
# UVM_INFO ../seq/apb_wr_rd_seq.sv(41) @ 1505000: uvm_test_top.env.agent.sequencer@@wr_rd_seq [apb_wr_rd_seq] WRITE: ADDR=0x00000344 DATA=0xb0a4374e
# UVM_INFO ../env/apb_agent/apb_monitor.sv(81) @ 1595000: uvm_test_top.env.agent.monitor [apb_monitor] Collected: T#0 | UNKNOWN_SEQ | ADDR=0x00000344 WRITE=0 DATA=0xb0a4374e RDATA=0xb0a4374e SLVERR=0
# UVM_INFO ../env/apb_scoreboard.sv(73) @ 1595000: uvm_test_top.env.scoreboard [apb_scoreboard] T#24 [READ PASS] ADDR=0x00000344 RDATA=0xb0a4374e
# UVM_INFO ../seq/apb_wr_rd_seq.sv(56) @ 1595000: uvm_test_top.env.agent.sequencer@@wr_rd_seq [apb_wr_rd_seq] READ : ADDR=0x00000344 RDATA=0xb0a4374e
# UVM_INFO ../env/apb_agent/apb_monitor.sv(81) @ 1635000: uvm_test_top.env.agent.monitor [apb_monitor] Collected: T#0 | UNKNOWN_SEQ | ADDR=0x000001e0 WRITE=1 DATA=0x6c985566 RDATA=0xb0a4374e SLVERR=0
# UVM_INFO ../seq/apb_wr_rd_seq.sv(41) @ 1635000: uvm_test_top.env.agent.sequencer@@wr_rd_seq [apb_wr_rd_seq] WRITE: ADDR=0x000001e0 DATA=0x6c985566
# UVM_INFO ../env/apb_agent/apb_monitor.sv(81) @ 1695000: uvm_test_top.env.agent.monitor [apb_monitor] Collected: T#0 | UNKNOWN_SEQ | ADDR=0x000001e0 WRITE=0 DATA=0x6c985566 RDATA=0x6c985566 SLVERR=0
# UVM_INFO ../env/apb_scoreboard.sv(73) @ 1695000: uvm_test_top.env.scoreboard [apb_scoreboard] T#26 [READ PASS] ADDR=0x000001e0 RDATA=0x6c985566
# UVM_INFO ../seq/apb_wr_rd_seq.sv(56) @ 1695000: uvm_test_top.env.agent.sequencer@@wr_rd_seq [apb_wr_rd_seq] READ : ADDR=0x000001e0 RDATA=0x6c985566
# UVM_INFO ../env/apb_agent/apb_monitor.sv(81) @ 1735000: uvm_test_top.env.agent.monitor [apb_monitor] Collected: T#0 | UNKNOWN_SEQ | ADDR=0x000000e8 WRITE=1 DATA=0x0ea487e3 RDATA=0x6c985566 SLVERR=0
# UVM_INFO ../seq/apb_wr_rd_seq.sv(41) @ 1735000: uvm_test_top.env.agent.sequencer@@wr_rd_seq [apb_wr_rd_seq] WRITE: ADDR=0x000000e8 DATA=0x0ea487e3
# UVM_INFO ../env/apb_agent/apb_monitor.sv(81) @ 1785000: uvm_test_top.env.agent.monitor [apb_monitor] Collected: T#0 | UNKNOWN_SEQ | ADDR=0x000000e8 WRITE=0 DATA=0x0ea487e3 RDATA=0x0ea487e3 SLVERR=0
# UVM_INFO ../env/apb_scoreboard.sv(73) @ 1785000: uvm_test_top.env.scoreboard [apb_scoreboard] T#28 [READ PASS] ADDR=0x000000e8 RDATA=0x0ea487e3
# UVM_INFO ../seq/apb_wr_rd_seq.sv(56) @ 1785000: uvm_test_top.env.agent.sequencer@@wr_rd_seq [apb_wr_rd_seq] READ : ADDR=0x000000e8 RDATA=0x0ea487e3
# UVM_INFO ../env/apb_agent/apb_monitor.sv(81) @ 1875000: uvm_test_top.env.agent.monitor [apb_monitor] Collected: T#0 | UNKNOWN_SEQ | ADDR=0x00000358 WRITE=1 DATA=0xdc438cab RDATA=0x0ea487e3 SLVERR=0
# UVM_INFO ../seq/apb_wr_rd_seq.sv(41) @ 1875000: uvm_test_top.env.agent.sequencer@@wr_rd_seq [apb_wr_rd_seq] WRITE: ADDR=0x00000358 DATA=0xdc438cab
# UVM_INFO ../env/apb_agent/apb_monitor.sv(81) @ 1985000: uvm_test_top.env.agent.monitor [apb_monitor] Collected: T#0 | UNKNOWN_SEQ | ADDR=0x00000358 WRITE=0 DATA=0xdc438cab RDATA=0xdc438cab SLVERR=0
# UVM_INFO ../env/apb_scoreboard.sv(73) @ 1985000: uvm_test_top.env.scoreboard [apb_scoreboard] T#30 [READ PASS] ADDR=0x00000358 RDATA=0xdc438cab
# UVM_INFO ../seq/apb_wr_rd_seq.sv(56) @ 1985000: uvm_test_top.env.agent.sequencer@@wr_rd_seq [apb_wr_rd_seq] READ : ADDR=0x00000358 RDATA=0xdc438cab
# UVM_INFO ../env/apb_agent/apb_monitor.sv(81) @ 2055000: uvm_test_top.env.agent.monitor [apb_monitor] Collected: T#0 | UNKNOWN_SEQ | ADDR=0x00000054 WRITE=1 DATA=0xbcc1bec7 RDATA=0xdc438cab SLVERR=0
# UVM_INFO ../seq/apb_wr_rd_seq.sv(41) @ 2055000: uvm_test_top.env.agent.sequencer@@wr_rd_seq [apb_wr_rd_seq] WRITE: ADDR=0x00000054 DATA=0xbcc1bec7
# UVM_INFO ../env/apb_agent/apb_monitor.sv(81) @ 2135000: uvm_test_top.env.agent.monitor [apb_monitor] Collected: T#0 | UNKNOWN_SEQ | ADDR=0x00000054 WRITE=0 DATA=0xbcc1bec7 RDATA=0xbcc1bec7 SLVERR=0
# UVM_INFO ../env/apb_scoreboard.sv(73) @ 2135000: uvm_test_top.env.scoreboard [apb_scoreboard] T#32 [READ PASS] ADDR=0x00000054 RDATA=0xbcc1bec7
# UVM_INFO ../seq/apb_wr_rd_seq.sv(56) @ 2135000: uvm_test_top.env.agent.sequencer@@wr_rd_seq [apb_wr_rd_seq] READ : ADDR=0x00000054 RDATA=0xbcc1bec7
# UVM_INFO ../env/apb_agent/apb_monitor.sv(81) @ 2175000: uvm_test_top.env.agent.monitor [apb_monitor] Collected: T#0 | UNKNOWN_SEQ | ADDR=0x00000158 WRITE=1 DATA=0xf97072f5 RDATA=0xbcc1bec7 SLVERR=0
# UVM_INFO ../seq/apb_wr_rd_seq.sv(41) @ 2175000: uvm_test_top.env.agent.sequencer@@wr_rd_seq [apb_wr_rd_seq] WRITE: ADDR=0x00000158 DATA=0xf97072f5
# UVM_INFO ../env/apb_agent/apb_monitor.sv(81) @ 2275000: uvm_test_top.env.agent.monitor [apb_monitor] Collected: T#0 | UNKNOWN_SEQ | ADDR=0x00000158 WRITE=0 DATA=0xf97072f5 RDATA=0xf97072f5 SLVERR=0
# UVM_INFO ../env/apb_scoreboard.sv(73) @ 2275000: uvm_test_top.env.scoreboard [apb_scoreboard] T#34 [READ PASS] ADDR=0x00000158 RDATA=0xf97072f5
# UVM_INFO ../seq/apb_wr_rd_seq.sv(56) @ 2275000: uvm_test_top.env.agent.sequencer@@wr_rd_seq [apb_wr_rd_seq] READ : ADDR=0x00000158 RDATA=0xf97072f5
# UVM_INFO ../env/apb_agent/apb_monitor.sv(81) @ 2365000: uvm_test_top.env.agent.monitor [apb_monitor] Collected: T#0 | UNKNOWN_SEQ | ADDR=0x000004b0 WRITE=1 DATA=0x11bf105e RDATA=0xdeadbeef SLVERR=1
# UVM_WARNING ../env/apb_scoreboard.sv(51) @ 2365000: uvm_test_top.env.scoreboard [apb_scoreboard] T#35 [SLVERR] ADDR=0x000004b0
# UVM_INFO ../seq/apb_wr_rd_seq.sv(41) @ 2365000: uvm_test_top.env.agent.sequencer@@wr_rd_seq [apb_wr_rd_seq] WRITE: ADDR=0x000004b0 DATA=0x11bf105e
# UVM_INFO ../env/apb_agent/apb_monitor.sv(81) @ 2405000: uvm_test_top.env.agent.monitor [apb_monitor] Collected: T#0 | UNKNOWN_SEQ | ADDR=0x000004b0 WRITE=0 DATA=0xdeadbeef RDATA=0xdeadbeef SLVERR=1
# UVM_WARNING ../env/apb_scoreboard.sv(51) @ 2405000: uvm_test_top.env.scoreboard [apb_scoreboard] T#36 [SLVERR] ADDR=0x000004b0
# UVM_INFO ../seq/apb_wr_rd_seq.sv(56) @ 2405000: uvm_test_top.env.agent.sequencer@@wr_rd_seq [apb_wr_rd_seq] READ : ADDR=0x000004b0 RDATA=0xdeadbeef
# UVM_INFO ../env/apb_agent/apb_monitor.sv(81) @ 2485000: uvm_test_top.env.agent.monitor [apb_monitor] Collected: T#0 | UNKNOWN_SEQ | ADDR=0x00000228 WRITE=1 DATA=0xcb6878cc RDATA=0xdeadbeef SLVERR=0
# UVM_INFO ../seq/apb_wr_rd_seq.sv(41) @ 2485000: uvm_test_top.env.agent.sequencer@@wr_rd_seq [apb_wr_rd_seq] WRITE: ADDR=0x00000228 DATA=0xcb6878cc
# UVM_INFO ../env/apb_agent/apb_monitor.sv(81) @ 2565000: uvm_test_top.env.agent.monitor [apb_monitor] Collected: T#0 | UNKNOWN_SEQ | ADDR=0x00000228 WRITE=0 DATA=0xcb6878cc RDATA=0xcb6878cc SLVERR=0
# UVM_INFO ../env/apb_scoreboard.sv(73) @ 2565000: uvm_test_top.env.scoreboard [apb_scoreboard] T#38 [READ PASS] ADDR=0x00000228 RDATA=0xcb6878cc
# UVM_INFO ../seq/apb_wr_rd_seq.sv(56) @ 2565000: uvm_test_top.env.agent.sequencer@@wr_rd_seq [apb_wr_rd_seq] READ : ADDR=0x00000228 RDATA=0xcb6878cc
# UVM_INFO ../env/apb_agent/apb_monitor.sv(81) @ 2635000: uvm_test_top.env.agent.monitor [apb_monitor] Collected: T#0 | UNKNOWN_SEQ | ADDR=0x00000334 WRITE=1 DATA=0xea33c831 RDATA=0xcb6878cc SLVERR=0
# UVM_INFO ../seq/apb_wr_rd_seq.sv(41) @ 2635000: uvm_test_top.env.agent.sequencer@@wr_rd_seq [apb_wr_rd_seq] WRITE: ADDR=0x00000334 DATA=0xea33c831
# UVM_INFO ../env/apb_agent/apb_monitor.sv(81) @ 2675000: uvm_test_top.env.agent.monitor [apb_monitor] Collected: T#0 | UNKNOWN_SEQ | ADDR=0x00000334 WRITE=0 DATA=0xea33c831 RDATA=0xea33c831 SLVERR=0
# UVM_INFO ../env/apb_scoreboard.sv(73) @ 2675000: uvm_test_top.env.scoreboard [apb_scoreboard] T#40 [READ PASS] ADDR=0x00000334 RDATA=0xea33c831
# UVM_INFO ../seq/apb_wr_rd_seq.sv(56) @ 2675000: uvm_test_top.env.agent.sequencer@@wr_rd_seq [apb_wr_rd_seq] READ : ADDR=0x00000334 RDATA=0xea33c831
# UVM_INFO ../env/apb_agent/apb_monitor.sv(81) @ 2715000: uvm_test_top.env.agent.monitor [apb_monitor] Collected: T#0 | UNKNOWN_SEQ | ADDR=0x000000c8 WRITE=1 DATA=0xb9de40e7 RDATA=0xea33c831 SLVERR=0
# UVM_INFO ../seq/apb_wr_rd_seq.sv(41) @ 2715000: uvm_test_top.env.agent.sequencer@@wr_rd_seq [apb_wr_rd_seq] WRITE: ADDR=0x000000c8 DATA=0xb9de40e7
# UVM_INFO ../env/apb_agent/apb_monitor.sv(81) @ 2805000: uvm_test_top.env.agent.monitor [apb_monitor] Collected: T#0 | UNKNOWN_SEQ | ADDR=0x000000c8 WRITE=0 DATA=0xb9de40e7 RDATA=0xb9de40e7 SLVERR=0
# UVM_INFO ../env/apb_scoreboard.sv(73) @ 2805000: uvm_test_top.env.scoreboard [apb_scoreboard] T#42 [READ PASS] ADDR=0x000000c8 RDATA=0xb9de40e7
# UVM_INFO ../seq/apb_wr_rd_seq.sv(56) @ 2805000: uvm_test_top.env.agent.sequencer@@wr_rd_seq [apb_wr_rd_seq] READ : ADDR=0x000000c8 RDATA=0xb9de40e7
# UVM_INFO ../env/apb_agent/apb_monitor.sv(81) @ 2905000: uvm_test_top.env.agent.monitor [apb_monitor] Collected: T#0 | UNKNOWN_SEQ | ADDR=0x000003f8 WRITE=1 DATA=0x96177c19 RDATA=0xb9de40e7 SLVERR=0
# UVM_INFO ../seq/apb_wr_rd_seq.sv(41) @ 2905000: uvm_test_top.env.agent.sequencer@@wr_rd_seq [apb_wr_rd_seq] WRITE: ADDR=0x000003f8 DATA=0x96177c19
# UVM_INFO ../env/apb_agent/apb_monitor.sv(81) @ 2945000: uvm_test_top.env.agent.monitor [apb_monitor] Collected: T#0 | UNKNOWN_SEQ | ADDR=0x000003f8 WRITE=0 DATA=0x96177c19 RDATA=0x96177c19 SLVERR=0
# UVM_INFO ../env/apb_scoreboard.sv(73) @ 2945000: uvm_test_top.env.scoreboard [apb_scoreboard] T#44 [READ PASS] ADDR=0x000003f8 RDATA=0x96177c19
# UVM_INFO ../seq/apb_wr_rd_seq.sv(56) @ 2945000: uvm_test_top.env.agent.sequencer@@wr_rd_seq [apb_wr_rd_seq] READ : ADDR=0x000003f8 RDATA=0x96177c19
# UVM_INFO ../env/apb_agent/apb_monitor.sv(81) @ 3005000: uvm_test_top.env.agent.monitor [apb_monitor] Collected: T#0 | UNKNOWN_SEQ | ADDR=0x00000454 WRITE=1 DATA=0x8a7875e4 RDATA=0xdeadbeef SLVERR=1
# UVM_WARNING ../env/apb_scoreboard.sv(51) @ 3005000: uvm_test_top.env.scoreboard [apb_scoreboard] T#45 [SLVERR] ADDR=0x00000454
# UVM_INFO ../seq/apb_wr_rd_seq.sv(41) @ 3005000: uvm_test_top.env.agent.sequencer@@wr_rd_seq [apb_wr_rd_seq] WRITE: ADDR=0x00000454 DATA=0x8a7875e4
# UVM_INFO ../env/apb_agent/apb_monitor.sv(81) @ 3075000: uvm_test_top.env.agent.monitor [apb_monitor] Collected: T#0 | UNKNOWN_SEQ | ADDR=0x00000454 WRITE=0 DATA=0xdeadbeef RDATA=0xdeadbeef SLVERR=1
# UVM_WARNING ../env/apb_scoreboard.sv(51) @ 3075000: uvm_test_top.env.scoreboard [apb_scoreboard] T#46 [SLVERR] ADDR=0x00000454
# UVM_INFO ../seq/apb_wr_rd_seq.sv(56) @ 3075000: uvm_test_top.env.agent.sequencer@@wr_rd_seq [apb_wr_rd_seq] READ : ADDR=0x00000454 RDATA=0xdeadbeef
# UVM_INFO ../env/apb_agent/apb_monitor.sv(81) @ 3145000: uvm_test_top.env.agent.monitor [apb_monitor] Collected: T#0 | UNKNOWN_SEQ | ADDR=0x000001b8 WRITE=1 DATA=0xc259ecf0 RDATA=0xdeadbeef SLVERR=0
# UVM_INFO ../seq/apb_wr_rd_seq.sv(41) @ 3145000: uvm_test_top.env.agent.sequencer@@wr_rd_seq [apb_wr_rd_seq] WRITE: ADDR=0x000001b8 DATA=0xc259ecf0
# UVM_INFO ../env/apb_agent/apb_monitor.sv(81) @ 3245000: uvm_test_top.env.agent.monitor [apb_monitor] Collected: T#0 | UNKNOWN_SEQ | ADDR=0x000001b8 WRITE=0 DATA=0xc259ecf0 RDATA=0xc259ecf0 SLVERR=0
# UVM_INFO ../env/apb_scoreboard.sv(73) @ 3245000: uvm_test_top.env.scoreboard [apb_scoreboard] T#48 [READ PASS] ADDR=0x000001b8 RDATA=0xc259ecf0
# UVM_INFO ../seq/apb_wr_rd_seq.sv(56) @ 3245000: uvm_test_top.env.agent.sequencer@@wr_rd_seq [apb_wr_rd_seq] READ : ADDR=0x000001b8 RDATA=0xc259ecf0
# UVM_INFO ../env/apb_agent/apb_monitor.sv(81) @ 3315000: uvm_test_top.env.agent.monitor [apb_monitor] Collected: T#0 | UNKNOWN_SEQ | ADDR=0x0000048c WRITE=1 DATA=0x767e86e2 RDATA=0xdeadbeef SLVERR=1
# UVM_WARNING ../env/apb_scoreboard.sv(51) @ 3315000: uvm_test_top.env.scoreboard [apb_scoreboard] T#49 [SLVERR] ADDR=0x0000048c
# UVM_INFO ../seq/apb_wr_rd_seq.sv(41) @ 3315000: uvm_test_top.env.agent.sequencer@@wr_rd_seq [apb_wr_rd_seq] WRITE: ADDR=0x0000048c DATA=0x767e86e2
# UVM_INFO ../env/apb_agent/apb_monitor.sv(81) @ 3355000: uvm_test_top.env.agent.monitor [apb_monitor] Collected: T#0 | UNKNOWN_SEQ | ADDR=0x0000048c WRITE=0 DATA=0xdeadbeef RDATA=0xdeadbeef SLVERR=1
# UVM_WARNING ../env/apb_scoreboard.sv(51) @ 3355000: uvm_test_top.env.scoreboard [apb_scoreboard] T#50 [SLVERR] ADDR=0x0000048c
# UVM_INFO ../seq/apb_wr_rd_seq.sv(56) @ 3355000: uvm_test_top.env.agent.sequencer@@wr_rd_seq [apb_wr_rd_seq] READ : ADDR=0x0000048c RDATA=0xdeadbeef
# UVM_INFO ../env/apb_agent/apb_monitor.sv(81) @ 3405000: uvm_test_top.env.agent.monitor [apb_monitor] Collected: T#0 | UNKNOWN_SEQ | ADDR=0x00000074 WRITE=1 DATA=0x8db287da RDATA=0xdeadbeef SLVERR=0
# UVM_INFO ../seq/apb_wr_rd_seq.sv(41) @ 3405000: uvm_test_top.env.agent.sequencer@@wr_rd_seq [apb_wr_rd_seq] WRITE: ADDR=0x00000074 DATA=0x8db287da
# UVM_INFO ../env/apb_agent/apb_monitor.sv(81) @ 3495000: uvm_test_top.env.agent.monitor [apb_monitor] Collected: T#0 | UNKNOWN_SEQ | ADDR=0x00000074 WRITE=0 DATA=0x8db287da RDATA=0x8db287da SLVERR=0
# UVM_INFO ../env/apb_scoreboard.sv(73) @ 3495000: uvm_test_top.env.scoreboard [apb_scoreboard] T#52 [READ PASS] ADDR=0x00000074 RDATA=0x8db287da
# UVM_INFO ../seq/apb_wr_rd_seq.sv(56) @ 3495000: uvm_test_top.env.agent.sequencer@@wr_rd_seq [apb_wr_rd_seq] READ : ADDR=0x00000074 RDATA=0x8db287da
# UVM_INFO ../env/apb_agent/apb_monitor.sv(81) @ 3585000: uvm_test_top.env.agent.monitor [apb_monitor] Collected: T#0 | UNKNOWN_SEQ | ADDR=0x00000344 WRITE=1 DATA=0xdf282bbb RDATA=0x8db287da SLVERR=0
# UVM_INFO ../seq/apb_wr_rd_seq.sv(41) @ 3585000: uvm_test_top.env.agent.sequencer@@wr_rd_seq [apb_wr_rd_seq] WRITE: ADDR=0x00000344 DATA=0xdf282bbb
# UVM_INFO ../env/apb_agent/apb_monitor.sv(81) @ 3625000: uvm_test_top.env.agent.monitor [apb_monitor] Collected: T#0 | UNKNOWN_SEQ | ADDR=0x00000344 WRITE=0 DATA=0xdf282bbb RDATA=0xdf282bbb SLVERR=0
# UVM_INFO ../env/apb_scoreboard.sv(73) @ 3625000: uvm_test_top.env.scoreboard [apb_scoreboard] T#54 [READ PASS] ADDR=0x00000344 RDATA=0xdf282bbb
# UVM_INFO ../seq/apb_wr_rd_seq.sv(56) @ 3625000: uvm_test_top.env.agent.sequencer@@wr_rd_seq [apb_wr_rd_seq] READ : ADDR=0x00000344 RDATA=0xdf282bbb
# UVM_INFO ../env/apb_agent/apb_monitor.sv(81) @ 3675000: uvm_test_top.env.agent.monitor [apb_monitor] Collected: T#0 | UNKNOWN_SEQ | ADDR=0x00000174 WRITE=1 DATA=0x260dcde7 RDATA=0xdf282bbb SLVERR=0
# UVM_INFO ../seq/apb_wr_rd_seq.sv(41) @ 3675000: uvm_test_top.env.agent.sequencer@@wr_rd_seq [apb_wr_rd_seq] WRITE: ADDR=0x00000174 DATA=0x260dcde7
# UVM_INFO ../env/apb_agent/apb_monitor.sv(81) @ 3715000: uvm_test_top.env.agent.monitor [apb_monitor] Collected: T#0 | UNKNOWN_SEQ | ADDR=0x00000174 WRITE=0 DATA=0x260dcde7 RDATA=0x260dcde7 SLVERR=0
# UVM_INFO ../env/apb_scoreboard.sv(73) @ 3715000: uvm_test_top.env.scoreboard [apb_scoreboard] T#56 [READ PASS] ADDR=0x00000174 RDATA=0x260dcde7
# UVM_INFO ../seq/apb_wr_rd_seq.sv(56) @ 3715000: uvm_test_top.env.agent.sequencer@@wr_rd_seq [apb_wr_rd_seq] READ : ADDR=0x00000174 RDATA=0x260dcde7
# UVM_INFO ../env/apb_agent/apb_monitor.sv(81) @ 3805000: uvm_test_top.env.agent.monitor [apb_monitor] Collected: T#0 | UNKNOWN_SEQ | ADDR=0x0000034c WRITE=1 DATA=0xaa927be5 RDATA=0x260dcde7 SLVERR=0
# UVM_INFO ../seq/apb_wr_rd_seq.sv(41) @ 3805000: uvm_test_top.env.agent.sequencer@@wr_rd_seq [apb_wr_rd_seq] WRITE: ADDR=0x0000034c DATA=0xaa927be5
# UVM_INFO ../env/apb_agent/apb_monitor.sv(81) @ 3915000: uvm_test_top.env.agent.monitor [apb_monitor] Collected: T#0 | UNKNOWN_SEQ | ADDR=0x0000034c WRITE=0 DATA=0xaa927be5 RDATA=0xaa927be5 SLVERR=0
# UVM_INFO ../env/apb_scoreboard.sv(73) @ 3915000: uvm_test_top.env.scoreboard [apb_scoreboard] T#58 [READ PASS] ADDR=0x0000034c RDATA=0xaa927be5
# UVM_INFO ../seq/apb_wr_rd_seq.sv(56) @ 3915000: uvm_test_top.env.agent.sequencer@@wr_rd_seq [apb_wr_rd_seq] READ : ADDR=0x0000034c RDATA=0xaa927be5
# UVM_INFO ../env/apb_agent/apb_monitor.sv(81) @ 3955000: uvm_test_top.env.agent.monitor [apb_monitor] Collected: T#0 | UNKNOWN_SEQ | ADDR=0x00000240 WRITE=1 DATA=0x34ab1a0d RDATA=0xaa927be5 SLVERR=0
# UVM_INFO ../seq/apb_wr_rd_seq.sv(41) @ 3955000: uvm_test_top.env.agent.sequencer@@wr_rd_seq [apb_wr_rd_seq] WRITE: ADDR=0x00000240 DATA=0x34ab1a0d
# UVM_INFO ../env/apb_agent/apb_monitor.sv(81) @ 4045000: uvm_test_top.env.agent.monitor [apb_monitor] Collected: T#0 | UNKNOWN_SEQ | ADDR=0x00000240 WRITE=0 DATA=0x34ab1a0d RDATA=0x34ab1a0d SLVERR=0
# UVM_INFO ../env/apb_scoreboard.sv(73) @ 4045000: uvm_test_top.env.scoreboard [apb_scoreboard] T#60 [READ PASS] ADDR=0x00000240 RDATA=0x34ab1a0d
# UVM_INFO ../seq/apb_wr_rd_seq.sv(56) @ 4045000: uvm_test_top.env.agent.sequencer@@wr_rd_seq [apb_wr_rd_seq] READ : ADDR=0x00000240 RDATA=0x34ab1a0d
# UVM_INFO ../env/apb_agent/apb_monitor.sv(81) @ 4125000: uvm_test_top.env.agent.monitor [apb_monitor] Collected: T#0 | UNKNOWN_SEQ | ADDR=0x0000043c WRITE=1 DATA=0x0fca3c45 RDATA=0xdeadbeef SLVERR=1
# UVM_WARNING ../env/apb_scoreboard.sv(51) @ 4125000: uvm_test_top.env.scoreboard [apb_scoreboard] T#61 [SLVERR] ADDR=0x0000043c
# UVM_INFO ../seq/apb_wr_rd_seq.sv(41) @ 4125000: uvm_test_top.env.agent.sequencer@@wr_rd_seq [apb_wr_rd_seq] WRITE: ADDR=0x0000043c DATA=0x0fca3c45
# UVM_INFO ../env/apb_agent/apb_monitor.sv(81) @ 4235000: uvm_test_top.env.agent.monitor [apb_monitor] Collected: T#0 | UNKNOWN_SEQ | ADDR=0x0000043c WRITE=0 DATA=0xdeadbeef RDATA=0xdeadbeef SLVERR=1
# UVM_WARNING ../env/apb_scoreboard.sv(51) @ 4235000: uvm_test_top.env.scoreboard [apb_scoreboard] T#62 [SLVERR] ADDR=0x0000043c
# UVM_INFO ../seq/apb_wr_rd_seq.sv(56) @ 4235000: uvm_test_top.env.agent.sequencer@@wr_rd_seq [apb_wr_rd_seq] READ : ADDR=0x0000043c RDATA=0xdeadbeef
# UVM_INFO ../env/apb_agent/apb_monitor.sv(81) @ 4325000: uvm_test_top.env.agent.monitor [apb_monitor] Collected: T#0 | UNKNOWN_SEQ | ADDR=0x000002f8 WRITE=1 DATA=0xc32dc2c7 RDATA=0xdeadbeef SLVERR=0
# UVM_INFO ../seq/apb_wr_rd_seq.sv(41) @ 4325000: uvm_test_top.env.agent.sequencer@@wr_rd_seq [apb_wr_rd_seq] WRITE: ADDR=0x000002f8 DATA=0xc32dc2c7
# UVM_INFO ../env/apb_agent/apb_monitor.sv(81) @ 4395000: uvm_test_top.env.agent.monitor [apb_monitor] Collected: T#0 | UNKNOWN_SEQ | ADDR=0x000002f8 WRITE=0 DATA=0xc32dc2c7 RDATA=0xc32dc2c7 SLVERR=0
# UVM_INFO ../env/apb_scoreboard.sv(73) @ 4395000: uvm_test_top.env.scoreboard [apb_scoreboard] T#64 [READ PASS] ADDR=0x000002f8 RDATA=0xc32dc2c7
# UVM_INFO ../seq/apb_wr_rd_seq.sv(56) @ 4395000: uvm_test_top.env.agent.sequencer@@wr_rd_seq [apb_wr_rd_seq] READ : ADDR=0x000002f8 RDATA=0xc32dc2c7
# UVM_INFO ../env/apb_agent/apb_monitor.sv(81) @ 4505000: uvm_test_top.env.agent.monitor [apb_monitor] Collected: T#0 | UNKNOWN_SEQ | ADDR=0x0000025c WRITE=1 DATA=0x6c9716a7 RDATA=0xc32dc2c7 SLVERR=0
# UVM_INFO ../seq/apb_wr_rd_seq.sv(41) @ 4505000: uvm_test_top.env.agent.sequencer@@wr_rd_seq [apb_wr_rd_seq] WRITE: ADDR=0x0000025c DATA=0x6c9716a7
# UVM_INFO ../env/apb_agent/apb_monitor.sv(81) @ 4565000: uvm_test_top.env.agent.monitor [apb_monitor] Collected: T#0 | UNKNOWN_SEQ | ADDR=0x0000025c WRITE=0 DATA=0x6c9716a7 RDATA=0x6c9716a7 SLVERR=0
# UVM_INFO ../env/apb_scoreboard.sv(73) @ 4565000: uvm_test_top.env.scoreboard [apb_scoreboard] T#66 [READ PASS] ADDR=0x0000025c RDATA=0x6c9716a7
# UVM_INFO ../seq/apb_wr_rd_seq.sv(56) @ 4565000: uvm_test_top.env.agent.sequencer@@wr_rd_seq [apb_wr_rd_seq] READ : ADDR=0x0000025c RDATA=0x6c9716a7
# UVM_INFO ../env/apb_agent/apb_monitor.sv(81) @ 4675000: uvm_test_top.env.agent.monitor [apb_monitor] Collected: T#0 | UNKNOWN_SEQ | ADDR=0x00000428 WRITE=1 DATA=0xf1575b6c RDATA=0xdeadbeef SLVERR=1
# UVM_WARNING ../env/apb_scoreboard.sv(51) @ 4675000: uvm_test_top.env.scoreboard [apb_scoreboard] T#67 [SLVERR] ADDR=0x00000428
# UVM_INFO ../seq/apb_wr_rd_seq.sv(41) @ 4675000: uvm_test_top.env.agent.sequencer@@wr_rd_seq [apb_wr_rd_seq] WRITE: ADDR=0x00000428 DATA=0xf1575b6c
# UVM_INFO ../env/apb_agent/apb_monitor.sv(81) @ 4735000: uvm_test_top.env.agent.monitor [apb_monitor] Collected: T#0 | UNKNOWN_SEQ | ADDR=0x00000428 WRITE=0 DATA=0xdeadbeef RDATA=0xdeadbeef SLVERR=1
# UVM_WARNING ../env/apb_scoreboard.sv(51) @ 4735000: uvm_test_top.env.scoreboard [apb_scoreboard] T#68 [SLVERR] ADDR=0x00000428
# UVM_INFO ../seq/apb_wr_rd_seq.sv(56) @ 4735000: uvm_test_top.env.agent.sequencer@@wr_rd_seq [apb_wr_rd_seq] READ : ADDR=0x00000428 RDATA=0xdeadbeef
# UVM_INFO ../env/apb_agent/apb_monitor.sv(81) @ 4775000: uvm_test_top.env.agent.monitor [apb_monitor] Collected: T#0 | UNKNOWN_SEQ | ADDR=0x0000030c WRITE=1 DATA=0x6625851f RDATA=0xdeadbeef SLVERR=0
# UVM_INFO ../seq/apb_wr_rd_seq.sv(41) @ 4775000: uvm_test_top.env.agent.sequencer@@wr_rd_seq [apb_wr_rd_seq] WRITE: ADDR=0x0000030c DATA=0x6625851f
# UVM_INFO ../env/apb_agent/apb_monitor.sv(81) @ 4885000: uvm_test_top.env.agent.monitor [apb_monitor] Collected: T#0 | UNKNOWN_SEQ | ADDR=0x0000030c WRITE=0 DATA=0x6625851f RDATA=0x6625851f SLVERR=0
# UVM_INFO ../env/apb_scoreboard.sv(73) @ 4885000: uvm_test_top.env.scoreboard [apb_scoreboard] T#70 [READ PASS] ADDR=0x0000030c RDATA=0x6625851f
# UVM_INFO ../seq/apb_wr_rd_seq.sv(56) @ 4885000: uvm_test_top.env.agent.sequencer@@wr_rd_seq [apb_wr_rd_seq] READ : ADDR=0x0000030c RDATA=0x6625851f
# UVM_INFO ../env/apb_agent/apb_monitor.sv(81) @ 4935000: uvm_test_top.env.agent.monitor [apb_monitor] Collected: T#0 | UNKNOWN_SEQ | ADDR=0x000004e4 WRITE=1 DATA=0x8a7c4547 RDATA=0xdeadbeef SLVERR=1
# UVM_WARNING ../env/apb_scoreboard.sv(51) @ 4935000: uvm_test_top.env.scoreboard [apb_scoreboard] T#71 [SLVERR] ADDR=0x000004e4
# UVM_INFO ../seq/apb_wr_rd_seq.sv(41) @ 4935000: uvm_test_top.env.agent.sequencer@@wr_rd_seq [apb_wr_rd_seq] WRITE: ADDR=0x000004e4 DATA=0x8a7c4547
# UVM_INFO ../env/apb_agent/apb_monitor.sv(81) @ 4995000: uvm_test_top.env.agent.monitor [apb_monitor] Collected: T#0 | UNKNOWN_SEQ | ADDR=0x000004e4 WRITE=0 DATA=0xdeadbeef RDATA=0xdeadbeef SLVERR=1
# UVM_WARNING ../env/apb_scoreboard.sv(51) @ 4995000: uvm_test_top.env.scoreboard [apb_scoreboard] T#72 [SLVERR] ADDR=0x000004e4
# UVM_INFO ../seq/apb_wr_rd_seq.sv(56) @ 4995000: uvm_test_top.env.agent.sequencer@@wr_rd_seq [apb_wr_rd_seq] READ : ADDR=0x000004e4 RDATA=0xdeadbeef
# UVM_INFO ../env/apb_agent/apb_monitor.sv(81) @ 5045000: uvm_test_top.env.agent.monitor [apb_monitor] Collected: T#0 | UNKNOWN_SEQ | ADDR=0x0000044c WRITE=1 DATA=0x3d5fdf36 RDATA=0xdeadbeef SLVERR=1
# UVM_WARNING ../env/apb_scoreboard.sv(51) @ 5045000: uvm_test_top.env.scoreboard [apb_scoreboard] T#73 [SLVERR] ADDR=0x0000044c
# UVM_INFO ../seq/apb_wr_rd_seq.sv(41) @ 5045000: uvm_test_top.env.agent.sequencer@@wr_rd_seq [apb_wr_rd_seq] WRITE: ADDR=0x0000044c DATA=0x3d5fdf36
# UVM_INFO ../env/apb_agent/apb_monitor.sv(81) @ 5135000: uvm_test_top.env.agent.monitor [apb_monitor] Collected: T#0 | UNKNOWN_SEQ | ADDR=0x0000044c WRITE=0 DATA=0xdeadbeef RDATA=0xdeadbeef SLVERR=1
# UVM_WARNING ../env/apb_scoreboard.sv(51) @ 5135000: uvm_test_top.env.scoreboard [apb_scoreboard] T#74 [SLVERR] ADDR=0x0000044c
# UVM_INFO ../seq/apb_wr_rd_seq.sv(56) @ 5135000: uvm_test_top.env.agent.sequencer@@wr_rd_seq [apb_wr_rd_seq] READ : ADDR=0x0000044c RDATA=0xdeadbeef
# UVM_INFO ../env/apb_agent/apb_monitor.sv(81) @ 5215000: uvm_test_top.env.agent.monitor [apb_monitor] Collected: T#0 | UNKNOWN_SEQ | ADDR=0x0000026c WRITE=1 DATA=0x03f3e4d8 RDATA=0xdeadbeef SLVERR=0
# UVM_INFO ../seq/apb_wr_rd_seq.sv(41) @ 5215000: uvm_test_top.env.agent.sequencer@@wr_rd_seq [apb_wr_rd_seq] WRITE: ADDR=0x0000026c DATA=0x03f3e4d8
# UVM_INFO ../env/apb_agent/apb_monitor.sv(81) @ 5255000: uvm_test_top.env.agent.monitor [apb_monitor] Collected: T#0 | UNKNOWN_SEQ | ADDR=0x0000026c WRITE=0 DATA=0x03f3e4d8 RDATA=0x03f3e4d8 SLVERR=0
# UVM_INFO ../env/apb_scoreboard.sv(73) @ 5255000: uvm_test_top.env.scoreboard [apb_scoreboard] T#76 [READ PASS] ADDR=0x0000026c RDATA=0x03f3e4d8
# UVM_INFO ../seq/apb_wr_rd_seq.sv(56) @ 5255000: uvm_test_top.env.agent.sequencer@@wr_rd_seq [apb_wr_rd_seq] READ : ADDR=0x0000026c RDATA=0x03f3e4d8
# UVM_INFO ../env/apb_agent/apb_monitor.sv(81) @ 5315000: uvm_test_top.env.agent.monitor [apb_monitor] Collected: T#0 | UNKNOWN_SEQ | ADDR=0x000000b8 WRITE=1 DATA=0x9d2db0e5 RDATA=0x03f3e4d8 SLVERR=0
# UVM_INFO ../seq/apb_wr_rd_seq.sv(41) @ 5315000: uvm_test_top.env.agent.sequencer@@wr_rd_seq [apb_wr_rd_seq] WRITE: ADDR=0x000000b8 DATA=0x9d2db0e5
# UVM_INFO ../env/apb_agent/apb_monitor.sv(81) @ 5355000: uvm_test_top.env.agent.monitor [apb_monitor] Collected: T#0 | UNKNOWN_SEQ | ADDR=0x000000b8 WRITE=0 DATA=0x9d2db0e5 RDATA=0x9d2db0e5 SLVERR=0
# UVM_INFO ../env/apb_scoreboard.sv(73) @ 5355000: uvm_test_top.env.scoreboard [apb_scoreboard] T#78 [READ PASS] ADDR=0x000000b8 RDATA=0x9d2db0e5
# UVM_INFO ../seq/apb_wr_rd_seq.sv(56) @ 5355000: uvm_test_top.env.agent.sequencer@@wr_rd_seq [apb_wr_rd_seq] READ : ADDR=0x000000b8 RDATA=0x9d2db0e5
# UVM_INFO ../env/apb_agent/apb_monitor.sv(81) @ 5435000: uvm_test_top.env.agent.monitor [apb_monitor] Collected: T#0 | UNKNOWN_SEQ | ADDR=0x000004d0 WRITE=1 DATA=0x8ca7e666 RDATA=0xdeadbeef SLVERR=1
# UVM_WARNING ../env/apb_scoreboard.sv(51) @ 5435000: uvm_test_top.env.scoreboard [apb_scoreboard] T#79 [SLVERR] ADDR=0x000004d0
# UVM_INFO ../seq/apb_wr_rd_seq.sv(41) @ 5435000: uvm_test_top.env.agent.sequencer@@wr_rd_seq [apb_wr_rd_seq] WRITE: ADDR=0x000004d0 DATA=0x8ca7e666
# UVM_INFO ../env/apb_agent/apb_monitor.sv(81) @ 5475000: uvm_test_top.env.agent.monitor [apb_monitor] Collected: T#0 | UNKNOWN_SEQ | ADDR=0x000004d0 WRITE=0 DATA=0xdeadbeef RDATA=0xdeadbeef SLVERR=1
# UVM_WARNING ../env/apb_scoreboard.sv(51) @ 5475000: uvm_test_top.env.scoreboard [apb_scoreboard] T#80 [SLVERR] ADDR=0x000004d0
# UVM_INFO ../seq/apb_wr_rd_seq.sv(56) @ 5475000: uvm_test_top.env.agent.sequencer@@wr_rd_seq [apb_wr_rd_seq] READ : ADDR=0x000004d0 RDATA=0xdeadbeef
# UVM_INFO ../env/apb_agent/apb_monitor.sv(81) @ 5555000: uvm_test_top.env.agent.monitor [apb_monitor] Collected: T#0 | UNKNOWN_SEQ | ADDR=0x00000318 WRITE=1 DATA=0xaaf68faf RDATA=0xdeadbeef SLVERR=0
# UVM_INFO ../seq/apb_wr_rd_seq.sv(41) @ 5555000: uvm_test_top.env.agent.sequencer@@wr_rd_seq [apb_wr_rd_seq] WRITE: ADDR=0x00000318 DATA=0xaaf68faf
# UVM_INFO ../env/apb_agent/apb_monitor.sv(81) @ 5605000: uvm_test_top.env.agent.monitor [apb_monitor] Collected: T#0 | UNKNOWN_SEQ | ADDR=0x00000318 WRITE=0 DATA=0xaaf68faf RDATA=0xaaf68faf SLVERR=0
# UVM_INFO ../env/apb_scoreboard.sv(73) @ 5605000: uvm_test_top.env.scoreboard [apb_scoreboard] T#82 [READ PASS] ADDR=0x00000318 RDATA=0xaaf68faf
# UVM_INFO ../seq/apb_wr_rd_seq.sv(56) @ 5605000: uvm_test_top.env.agent.sequencer@@wr_rd_seq [apb_wr_rd_seq] READ : ADDR=0x00000318 RDATA=0xaaf68faf
# UVM_INFO ../env/apb_agent/apb_monitor.sv(81) @ 5705000: uvm_test_top.env.agent.monitor [apb_monitor] Collected: T#0 | UNKNOWN_SEQ | ADDR=0x00000008 WRITE=1 DATA=0x2617f100 RDATA=0xaaf68faf SLVERR=0
# UVM_INFO ../seq/apb_wr_rd_seq.sv(41) @ 5705000: uvm_test_top.env.agent.sequencer@@wr_rd_seq [apb_wr_rd_seq] WRITE: ADDR=0x00000008 DATA=0x2617f100
# UVM_INFO ../env/apb_agent/apb_monitor.sv(81) @ 5775000: uvm_test_top.env.agent.monitor [apb_monitor] Collected: T#0 | UNKNOWN_SEQ | ADDR=0x00000008 WRITE=0 DATA=0x2617f100 RDATA=0x2617f100 SLVERR=0
# UVM_INFO ../env/apb_scoreboard.sv(73) @ 5775000: uvm_test_top.env.scoreboard [apb_scoreboard] T#84 [READ PASS] ADDR=0x00000008 RDATA=0x2617f100
# UVM_INFO ../seq/apb_wr_rd_seq.sv(56) @ 5775000: uvm_test_top.env.agent.sequencer@@wr_rd_seq [apb_wr_rd_seq] READ : ADDR=0x00000008 RDATA=0x2617f100
# UVM_INFO ../env/apb_agent/apb_monitor.sv(81) @ 5825000: uvm_test_top.env.agent.monitor [apb_monitor] Collected: T#0 | UNKNOWN_SEQ | ADDR=0x00000178 WRITE=1 DATA=0xef5f5f73 RDATA=0x2617f100 SLVERR=0
# UVM_INFO ../seq/apb_wr_rd_seq.sv(41) @ 5825000: uvm_test_top.env.agent.sequencer@@wr_rd_seq [apb_wr_rd_seq] WRITE: ADDR=0x00000178 DATA=0xef5f5f73
# UVM_INFO ../env/apb_agent/apb_monitor.sv(81) @ 5885000: uvm_test_top.env.agent.monitor [apb_monitor] Collected: T#0 | UNKNOWN_SEQ | ADDR=0x00000178 WRITE=0 DATA=0xef5f5f73 RDATA=0xef5f5f73 SLVERR=0
# UVM_INFO ../env/apb_scoreboard.sv(73) @ 5885000: uvm_test_top.env.scoreboard [apb_scoreboard] T#86 [READ PASS] ADDR=0x00000178 RDATA=0xef5f5f73
# UVM_INFO ../seq/apb_wr_rd_seq.sv(56) @ 5885000: uvm_test_top.env.agent.sequencer@@wr_rd_seq [apb_wr_rd_seq] READ : ADDR=0x00000178 RDATA=0xef5f5f73
# UVM_INFO ../env/apb_agent/apb_monitor.sv(81) @ 5975000: uvm_test_top.env.agent.monitor [apb_monitor] Collected: T#0 | UNKNOWN_SEQ | ADDR=0x00000410 WRITE=1 DATA=0xf217d49a RDATA=0xdeadbeef SLVERR=1
# UVM_WARNING ../env/apb_scoreboard.sv(51) @ 5975000: uvm_test_top.env.scoreboard [apb_scoreboard] T#87 [SLVERR] ADDR=0x00000410
# UVM_INFO ../seq/apb_wr_rd_seq.sv(41) @ 5975000: uvm_test_top.env.agent.sequencer@@wr_rd_seq [apb_wr_rd_seq] WRITE: ADDR=0x00000410 DATA=0xf217d49a
# UVM_INFO ../env/apb_agent/apb_monitor.sv(81) @ 6035000: uvm_test_top.env.agent.monitor [apb_monitor] Collected: T#0 | UNKNOWN_SEQ | ADDR=0x00000410 WRITE=0 DATA=0xdeadbeef RDATA=0xdeadbeef SLVERR=1
# UVM_WARNING ../env/apb_scoreboard.sv(51) @ 6035000: uvm_test_top.env.scoreboard [apb_scoreboard] T#88 [SLVERR] ADDR=0x00000410
# UVM_INFO ../seq/apb_wr_rd_seq.sv(56) @ 6035000: uvm_test_top.env.agent.sequencer@@wr_rd_seq [apb_wr_rd_seq] READ : ADDR=0x00000410 RDATA=0xdeadbeef
# UVM_INFO ../env/apb_agent/apb_monitor.sv(81) @ 6095000: uvm_test_top.env.agent.monitor [apb_monitor] Collected: T#0 | UNKNOWN_SEQ | ADDR=0x000004fc WRITE=1 DATA=0xdb84f269 RDATA=0xdeadbeef SLVERR=1
# UVM_WARNING ../env/apb_scoreboard.sv(51) @ 6095000: uvm_test_top.env.scoreboard [apb_scoreboard] T#89 [SLVERR] ADDR=0x000004fc
# UVM_INFO ../seq/apb_wr_rd_seq.sv(41) @ 6095000: uvm_test_top.env.agent.sequencer@@wr_rd_seq [apb_wr_rd_seq] WRITE: ADDR=0x000004fc DATA=0xdb84f269
# UVM_INFO ../env/apb_agent/apb_monitor.sv(81) @ 6135000: uvm_test_top.env.agent.monitor [apb_monitor] Collected: T#0 | UNKNOWN_SEQ | ADDR=0x000004fc WRITE=0 DATA=0xdeadbeef RDATA=0xdeadbeef SLVERR=1
# UVM_WARNING ../env/apb_scoreboard.sv(51) @ 6135000: uvm_test_top.env.scoreboard [apb_scoreboard] T#90 [SLVERR] ADDR=0x000004fc
# UVM_INFO ../seq/apb_wr_rd_seq.sv(56) @ 6135000: uvm_test_top.env.agent.sequencer@@wr_rd_seq [apb_wr_rd_seq] READ : ADDR=0x000004fc RDATA=0xdeadbeef
# UVM_INFO ../env/apb_agent/apb_monitor.sv(81) @ 6205000: uvm_test_top.env.agent.monitor [apb_monitor] Collected: T#0 | UNKNOWN_SEQ | ADDR=0x000003c8 WRITE=1 DATA=0x8c7b45ff RDATA=0xdeadbeef SLVERR=0
# UVM_INFO ../seq/apb_wr_rd_seq.sv(41) @ 6205000: uvm_test_top.env.agent.sequencer@@wr_rd_seq [apb_wr_rd_seq] WRITE: ADDR=0x000003c8 DATA=0x8c7b45ff
# UVM_INFO ../env/apb_agent/apb_monitor.sv(81) @ 6295000: uvm_test_top.env.agent.monitor [apb_monitor] Collected: T#0 | UNKNOWN_SEQ | ADDR=0x000003c8 WRITE=0 DATA=0x8c7b45ff RDATA=0x8c7b45ff SLVERR=0
# UVM_INFO ../env/apb_scoreboard.sv(73) @ 6295000: uvm_test_top.env.scoreboard [apb_scoreboard] T#92 [READ PASS] ADDR=0x000003c8 RDATA=0x8c7b45ff
# UVM_INFO ../seq/apb_wr_rd_seq.sv(56) @ 6295000: uvm_test_top.env.agent.sequencer@@wr_rd_seq [apb_wr_rd_seq] READ : ADDR=0x000003c8 RDATA=0x8c7b45ff
# UVM_INFO ../env/apb_agent/apb_monitor.sv(81) @ 6385000: uvm_test_top.env.agent.monitor [apb_monitor] Collected: T#0 | UNKNOWN_SEQ | ADDR=0x00000154 WRITE=1 DATA=0xcab062e6 RDATA=0x8c7b45ff SLVERR=0
# UVM_INFO ../seq/apb_wr_rd_seq.sv(41) @ 6385000: uvm_test_top.env.agent.sequencer@@wr_rd_seq [apb_wr_rd_seq] WRITE: ADDR=0x00000154 DATA=0xcab062e6
# UVM_INFO ../env/apb_agent/apb_monitor.sv(81) @ 6485000: uvm_test_top.env.agent.monitor [apb_monitor] Collected: T#0 | UNKNOWN_SEQ | ADDR=0x00000154 WRITE=0 DATA=0xcab062e6 RDATA=0xcab062e6 SLVERR=0
# UVM_INFO ../env/apb_scoreboard.sv(73) @ 6485000: uvm_test_top.env.scoreboard [apb_scoreboard] T#94 [READ PASS] ADDR=0x00000154 RDATA=0xcab062e6
# UVM_INFO ../seq/apb_wr_rd_seq.sv(56) @ 6485000: uvm_test_top.env.agent.sequencer@@wr_rd_seq [apb_wr_rd_seq] READ : ADDR=0x00000154 RDATA=0xcab062e6
# UVM_INFO ../env/apb_agent/apb_monitor.sv(81) @ 6545000: uvm_test_top.env.agent.monitor [apb_monitor] Collected: T#0 | UNKNOWN_SEQ | ADDR=0x00000278 WRITE=1 DATA=0xe6782025 RDATA=0xcab062e6 SLVERR=0
# UVM_INFO ../seq/apb_wr_rd_seq.sv(41) @ 6545000: uvm_test_top.env.agent.sequencer@@wr_rd_seq [apb_wr_rd_seq] WRITE: ADDR=0x00000278 DATA=0xe6782025
# UVM_INFO ../env/apb_agent/apb_monitor.sv(81) @ 6635000: uvm_test_top.env.agent.monitor [apb_monitor] Collected: T#0 | UNKNOWN_SEQ | ADDR=0x00000278 WRITE=0 DATA=0xe6782025 RDATA=0xe6782025 SLVERR=0
# UVM_INFO ../env/apb_scoreboard.sv(73) @ 6635000: uvm_test_top.env.scoreboard [apb_scoreboard] T#96 [READ PASS] ADDR=0x00000278 RDATA=0xe6782025
# UVM_INFO ../seq/apb_wr_rd_seq.sv(56) @ 6635000: uvm_test_top.env.agent.sequencer@@wr_rd_seq [apb_wr_rd_seq] READ : ADDR=0x00000278 RDATA=0xe6782025
# UVM_INFO ../env/apb_agent/apb_monitor.sv(81) @ 6675000: uvm_test_top.env.agent.monitor [apb_monitor] Collected: T#0 | UNKNOWN_SEQ | ADDR=0x000003c4 WRITE=1 DATA=0x409562d7 RDATA=0xe6782025 SLVERR=0
# UVM_INFO ../seq/apb_wr_rd_seq.sv(41) @ 6675000: uvm_test_top.env.agent.sequencer@@wr_rd_seq [apb_wr_rd_seq] WRITE: ADDR=0x000003c4 DATA=0x409562d7
# UVM_INFO ../env/apb_agent/apb_monitor.sv(81) @ 6775000: uvm_test_top.env.agent.monitor [apb_monitor] Collected: T#0 | UNKNOWN_SEQ | ADDR=0x000003c4 WRITE=0 DATA=0x409562d7 RDATA=0x409562d7 SLVERR=0
# UVM_INFO ../env/apb_scoreboard.sv(73) @ 6775000: uvm_test_top.env.scoreboard [apb_scoreboard] T#98 [READ PASS] ADDR=0x000003c4 RDATA=0x409562d7
# UVM_INFO ../seq/apb_wr_rd_seq.sv(56) @ 6775000: uvm_test_top.env.agent.sequencer@@wr_rd_seq [apb_wr_rd_seq] READ : ADDR=0x000003c4 RDATA=0x409562d7
# UVM_INFO ../env/apb_agent/apb_monitor.sv(81) @ 6875000: uvm_test_top.env.agent.monitor [apb_monitor] Collected: T#0 | UNKNOWN_SEQ | ADDR=0x0000014c WRITE=1 DATA=0x75463466 RDATA=0x409562d7 SLVERR=0
# UVM_INFO ../seq/apb_wr_rd_seq.sv(41) @ 6875000: uvm_test_top.env.agent.sequencer@@wr_rd_seq [apb_wr_rd_seq] WRITE: ADDR=0x0000014c DATA=0x75463466
# UVM_INFO ../env/apb_agent/apb_monitor.sv(81) @ 6955000: uvm_test_top.env.agent.monitor [apb_monitor] Collected: T#0 | UNKNOWN_SEQ | ADDR=0x0000014c WRITE=0 DATA=0x75463466 RDATA=0x75463466 SLVERR=0
# UVM_INFO ../env/apb_scoreboard.sv(73) @ 6955000: uvm_test_top.env.scoreboard [apb_scoreboard] T#100 [READ PASS] ADDR=0x0000014c RDATA=0x75463466
# UVM_INFO ../seq/apb_wr_rd_seq.sv(56) @ 6955000: uvm_test_top.env.agent.sequencer@@wr_rd_seq [apb_wr_rd_seq] READ : ADDR=0x0000014c RDATA=0x75463466
# UVM_INFO ../env/apb_agent/apb_monitor.sv(81) @ 7045000: uvm_test_top.env.agent.monitor [apb_monitor] Collected: T#0 | UNKNOWN_SEQ | ADDR=0x000001f4 WRITE=1 DATA=0x060f3b02 RDATA=0x75463466 SLVERR=0
# UVM_INFO ../seq/apb_wr_rd_seq.sv(41) @ 7045000: uvm_test_top.env.agent.sequencer@@wr_rd_seq [apb_wr_rd_seq] WRITE: ADDR=0x000001f4 DATA=0x060f3b02
# UVM_INFO ../env/apb_agent/apb_monitor.sv(81) @ 7085000: uvm_test_top.env.agent.monitor [apb_monitor] Collected: T#0 | UNKNOWN_SEQ | ADDR=0x000001f4 WRITE=0 DATA=0x060f3b02 RDATA=0x060f3b02 SLVERR=0
# UVM_INFO ../env/apb_scoreboard.sv(73) @ 7085000: uvm_test_top.env.scoreboard [apb_scoreboard] T#102 [READ PASS] ADDR=0x000001f4 RDATA=0x060f3b02
# UVM_INFO ../seq/apb_wr_rd_seq.sv(56) @ 7085000: uvm_test_top.env.agent.sequencer@@wr_rd_seq [apb_wr_rd_seq] READ : ADDR=0x000001f4 RDATA=0x060f3b02
# UVM_INFO ../env/apb_agent/apb_monitor.sv(81) @ 7125000: uvm_test_top.env.agent.monitor [apb_monitor] Collected: T#0 | UNKNOWN_SEQ | ADDR=0x00000140 WRITE=1 DATA=0xcb66c7ff RDATA=0x060f3b02 SLVERR=0
# UVM_INFO ../seq/apb_wr_rd_seq.sv(41) @ 7125000: uvm_test_top.env.agent.sequencer@@wr_rd_seq [apb_wr_rd_seq] WRITE: ADDR=0x00000140 DATA=0xcb66c7ff
# UVM_INFO ../env/apb_agent/apb_monitor.sv(81) @ 7215000: uvm_test_top.env.agent.monitor [apb_monitor] Collected: T#0 | UNKNOWN_SEQ | ADDR=0x00000140 WRITE=0 DATA=0xcb66c7ff RDATA=0xcb66c7ff SLVERR=0
# UVM_INFO ../env/apb_scoreboard.sv(73) @ 7215000: uvm_test_top.env.scoreboard [apb_scoreboard] T#104 [READ PASS] ADDR=0x00000140 RDATA=0xcb66c7ff
# UVM_INFO ../seq/apb_wr_rd_seq.sv(56) @ 7215000: uvm_test_top.env.agent.sequencer@@wr_rd_seq [apb_wr_rd_seq] READ : ADDR=0x00000140 RDATA=0xcb66c7ff
# UVM_INFO ../env/apb_agent/apb_monitor.sv(81) @ 7305000: uvm_test_top.env.agent.monitor [apb_monitor] Collected: T#0 | UNKNOWN_SEQ | ADDR=0x00000068 WRITE=1 DATA=0x9e538b31 RDATA=0xcb66c7ff SLVERR=0
# UVM_INFO ../seq/apb_wr_rd_seq.sv(41) @ 7305000: uvm_test_top.env.agent.sequencer@@wr_rd_seq [apb_wr_rd_seq] WRITE: ADDR=0x00000068 DATA=0x9e538b31
# UVM_INFO ../env/apb_agent/apb_monitor.sv(81) @ 7365000: uvm_test_top.env.agent.monitor [apb_monitor] Collected: T#0 | UNKNOWN_SEQ | ADDR=0x00000068 WRITE=0 DATA=0x9e538b31 RDATA=0x9e538b31 SLVERR=0
# UVM_INFO ../env/apb_scoreboard.sv(73) @ 7365000: uvm_test_top.env.scoreboard [apb_scoreboard] T#106 [READ PASS] ADDR=0x00000068 RDATA=0x9e538b31
# UVM_INFO ../seq/apb_wr_rd_seq.sv(56) @ 7365000: uvm_test_top.env.agent.sequencer@@wr_rd_seq [apb_wr_rd_seq] READ : ADDR=0x00000068 RDATA=0x9e538b31
# UVM_INFO ../env/apb_agent/apb_monitor.sv(81) @ 7445000: uvm_test_top.env.agent.monitor [apb_monitor] Collected: T#0 | UNKNOWN_SEQ | ADDR=0x000004ac WRITE=1 DATA=0x3c4026fd RDATA=0xdeadbeef SLVERR=1
# UVM_WARNING ../env/apb_scoreboard.sv(51) @ 7445000: uvm_test_top.env.scoreboard [apb_scoreboard] T#107 [SLVERR] ADDR=0x000004ac
# UVM_INFO ../seq/apb_wr_rd_seq.sv(41) @ 7445000: uvm_test_top.env.agent.sequencer@@wr_rd_seq [apb_wr_rd_seq] WRITE: ADDR=0x000004ac DATA=0x3c4026fd
# UVM_INFO ../env/apb_agent/apb_monitor.sv(81) @ 7525000: uvm_test_top.env.agent.monitor [apb_monitor] Collected: T#0 | UNKNOWN_SEQ | ADDR=0x000004ac WRITE=0 DATA=0xdeadbeef RDATA=0xdeadbeef SLVERR=1
# UVM_WARNING ../env/apb_scoreboard.sv(51) @ 7525000: uvm_test_top.env.scoreboard [apb_scoreboard] T#108 [SLVERR] ADDR=0x000004ac
# UVM_INFO ../seq/apb_wr_rd_seq.sv(56) @ 7525000: uvm_test_top.env.agent.sequencer@@wr_rd_seq [apb_wr_rd_seq] READ : ADDR=0x000004ac RDATA=0xdeadbeef
# UVM_INFO ../env/apb_agent/apb_monitor.sv(81) @ 7605000: uvm_test_top.env.agent.monitor [apb_monitor] Collected: T#0 | UNKNOWN_SEQ | ADDR=0x000004d0 WRITE=1 DATA=0x11ffbe9a RDATA=0xdeadbeef SLVERR=1
# UVM_WARNING ../env/apb_scoreboard.sv(51) @ 7605000: uvm_test_top.env.scoreboard [apb_scoreboard] T#109 [SLVERR] ADDR=0x000004d0
# UVM_INFO ../seq/apb_wr_rd_seq.sv(41) @ 7605000: uvm_test_top.env.agent.sequencer@@wr_rd_seq [apb_wr_rd_seq] WRITE: ADDR=0x000004d0 DATA=0x11ffbe9a
# UVM_INFO ../env/apb_agent/apb_monitor.sv(81) @ 7645000: uvm_test_top.env.agent.monitor [apb_monitor] Collected: T#0 | UNKNOWN_SEQ | ADDR=0x000004d0 WRITE=0 DATA=0xdeadbeef RDATA=0xdeadbeef SLVERR=1
# UVM_WARNING ../env/apb_scoreboard.sv(51) @ 7645000: uvm_test_top.env.scoreboard [apb_scoreboard] T#110 [SLVERR] ADDR=0x000004d0
# UVM_INFO ../seq/apb_wr_rd_seq.sv(56) @ 7645000: uvm_test_top.env.agent.sequencer@@wr_rd_seq [apb_wr_rd_seq] READ : ADDR=0x000004d0 RDATA=0xdeadbeef
# UVM_INFO ../env/apb_agent/apb_monitor.sv(81) @ 7765000: uvm_test_top.env.agent.monitor [apb_monitor] Collected: T#0 | UNKNOWN_SEQ | ADDR=0x00000068 WRITE=1 DATA=0x5a6a1467 RDATA=0xdeadbeef SLVERR=0
# UVM_INFO ../seq/apb_wr_rd_seq.sv(41) @ 7765000: uvm_test_top.env.agent.sequencer@@wr_rd_seq [apb_wr_rd_seq] WRITE: ADDR=0x00000068 DATA=0x5a6a1467
# UVM_INFO ../env/apb_agent/apb_monitor.sv(81) @ 7875000: uvm_test_top.env.agent.monitor [apb_monitor] Collected: T#0 | UNKNOWN_SEQ | ADDR=0x00000068 WRITE=0 DATA=0x5a6a1467 RDATA=0x5a6a1467 SLVERR=0
# UVM_INFO ../env/apb_scoreboard.sv(73) @ 7875000: uvm_test_top.env.scoreboard [apb_scoreboard] T#112 [READ PASS] ADDR=0x00000068 RDATA=0x5a6a1467
# UVM_INFO ../seq/apb_wr_rd_seq.sv(56) @ 7875000: uvm_test_top.env.agent.sequencer@@wr_rd_seq [apb_wr_rd_seq] READ : ADDR=0x00000068 RDATA=0x5a6a1467
# UVM_INFO ../env/apb_agent/apb_monitor.sv(81) @ 7985000: uvm_test_top.env.agent.monitor [apb_monitor] Collected: T#0 | UNKNOWN_SEQ | ADDR=0x000000b8 WRITE=1 DATA=0x3292686b RDATA=0x5a6a1467 SLVERR=0
# UVM_INFO ../seq/apb_wr_rd_seq.sv(41) @ 7985000: uvm_test_top.env.agent.sequencer@@wr_rd_seq [apb_wr_rd_seq] WRITE: ADDR=0x000000b8 DATA=0x3292686b
# UVM_INFO ../env/apb_agent/apb_monitor.sv(81) @ 8085000: uvm_test_top.env.agent.monitor [apb_monitor] Collected: T#0 | UNKNOWN_SEQ | ADDR=0x000000b8 WRITE=0 DATA=0x3292686b RDATA=0x3292686b SLVERR=0
# UVM_INFO ../env/apb_scoreboard.sv(73) @ 8085000: uvm_test_top.env.scoreboard [apb_scoreboard] T#114 [READ PASS] ADDR=0x000000b8 RDATA=0x3292686b
# UVM_INFO ../seq/apb_wr_rd_seq.sv(56) @ 8085000: uvm_test_top.env.agent.sequencer@@wr_rd_seq [apb_wr_rd_seq] READ : ADDR=0x000000b8 RDATA=0x3292686b
# UVM_INFO ../env/apb_agent/apb_monitor.sv(81) @ 8195000: uvm_test_top.env.agent.monitor [apb_monitor] Collected: T#0 | UNKNOWN_SEQ | ADDR=0x00000174 WRITE=1 DATA=0x59577795 RDATA=0x3292686b SLVERR=0
# UVM_INFO ../seq/apb_wr_rd_seq.sv(41) @ 8195000: uvm_test_top.env.agent.sequencer@@wr_rd_seq [apb_wr_rd_seq] WRITE: ADDR=0x00000174 DATA=0x59577795
# UVM_INFO ../env/apb_agent/apb_monitor.sv(81) @ 8305000: uvm_test_top.env.agent.monitor [apb_monitor] Collected: T#0 | UNKNOWN_SEQ | ADDR=0x00000174 WRITE=0 DATA=0x59577795 RDATA=0x59577795 SLVERR=0
# UVM_INFO ../env/apb_scoreboard.sv(73) @ 8305000: uvm_test_top.env.scoreboard [apb_scoreboard] T#116 [READ PASS] ADDR=0x00000174 RDATA=0x59577795
# UVM_INFO ../seq/apb_wr_rd_seq.sv(56) @ 8305000: uvm_test_top.env.agent.sequencer@@wr_rd_seq [apb_wr_rd_seq] READ : ADDR=0x00000174 RDATA=0x59577795
# UVM_INFO ../env/apb_agent/apb_monitor.sv(81) @ 8415000: uvm_test_top.env.agent.monitor [apb_monitor] Collected: T#0 | UNKNOWN_SEQ | ADDR=0x00000264 WRITE=1 DATA=0xf38e46f3 RDATA=0x59577795 SLVERR=0
# UVM_INFO ../seq/apb_wr_rd_seq.sv(41) @ 8415000: uvm_test_top.env.agent.sequencer@@wr_rd_seq [apb_wr_rd_seq] WRITE: ADDR=0x00000264 DATA=0xf38e46f3
# UVM_INFO ../env/apb_agent/apb_monitor.sv(81) @ 8515000: uvm_test_top.env.agent.monitor [apb_monitor] Collected: T#0 | UNKNOWN_SEQ | ADDR=0x00000264 WRITE=0 DATA=0xf38e46f3 RDATA=0xf38e46f3 SLVERR=0
# UVM_INFO ../env/apb_scoreboard.sv(73) @ 8515000: uvm_test_top.env.scoreboard [apb_scoreboard] T#118 [READ PASS] ADDR=0x00000264 RDATA=0xf38e46f3
# UVM_INFO ../seq/apb_wr_rd_seq.sv(56) @ 8515000: uvm_test_top.env.agent.sequencer@@wr_rd_seq [apb_wr_rd_seq] READ : ADDR=0x00000264 RDATA=0xf38e46f3
# UVM_INFO ../env/apb_agent/apb_monitor.sv(81) @ 8595000: uvm_test_top.env.agent.monitor [apb_monitor] Collected: T#0 | UNKNOWN_SEQ | ADDR=0x000001f8 WRITE=1 DATA=0xc83f8978 RDATA=0xf38e46f3 SLVERR=0
# UVM_INFO ../seq/apb_wr_rd_seq.sv(41) @ 8595000: uvm_test_top.env.agent.sequencer@@wr_rd_seq [apb_wr_rd_seq] WRITE: ADDR=0x000001f8 DATA=0xc83f8978
# UVM_INFO ../env/apb_agent/apb_monitor.sv(81) @ 8655000: uvm_test_top.env.agent.monitor [apb_monitor] Collected: T#0 | UNKNOWN_SEQ | ADDR=0x000001f8 WRITE=0 DATA=0xc83f8978 RDATA=0xc83f8978 SLVERR=0
# UVM_INFO ../env/apb_scoreboard.sv(73) @ 8655000: uvm_test_top.env.scoreboard [apb_scoreboard] T#120 [READ PASS] ADDR=0x000001f8 RDATA=0xc83f8978
# UVM_INFO ../seq/apb_wr_rd_seq.sv(56) @ 8655000: uvm_test_top.env.agent.sequencer@@wr_rd_seq [apb_wr_rd_seq] READ : ADDR=0x000001f8 RDATA=0xc83f8978
# UVM_INFO ../env/apb_agent/apb_monitor.sv(81) @ 8695000: uvm_test_top.env.agent.monitor [apb_monitor] Collected: T#0 | UNKNOWN_SEQ | ADDR=0x000001e0 WRITE=1 DATA=0x54368aad RDATA=0xc83f8978 SLVERR=0
# UVM_INFO ../seq/apb_wr_rd_seq.sv(41) @ 8695000: uvm_test_top.env.agent.sequencer@@wr_rd_seq [apb_wr_rd_seq] WRITE: ADDR=0x000001e0 DATA=0x54368aad
# UVM_INFO ../env/apb_agent/apb_monitor.sv(81) @ 8805000: uvm_test_top.env.agent.monitor [apb_monitor] Collected: T#0 | UNKNOWN_SEQ | ADDR=0x000001e0 WRITE=0 DATA=0x54368aad RDATA=0x54368aad SLVERR=0
# UVM_INFO ../env/apb_scoreboard.sv(73) @ 8805000: uvm_test_top.env.scoreboard [apb_scoreboard] T#122 [READ PASS] ADDR=0x000001e0 RDATA=0x54368aad
# UVM_INFO ../seq/apb_wr_rd_seq.sv(56) @ 8805000: uvm_test_top.env.agent.sequencer@@wr_rd_seq [apb_wr_rd_seq] READ : ADDR=0x000001e0 RDATA=0x54368aad
# UVM_INFO ../env/apb_agent/apb_monitor.sv(81) @ 8865000: uvm_test_top.env.agent.monitor [apb_monitor] Collected: T#0 | UNKNOWN_SEQ | ADDR=0x00000164 WRITE=1 DATA=0xdebe5478 RDATA=0x54368aad SLVERR=0
# UVM_INFO ../seq/apb_wr_rd_seq.sv(41) @ 8865000: uvm_test_top.env.agent.sequencer@@wr_rd_seq [apb_wr_rd_seq] WRITE: ADDR=0x00000164 DATA=0xdebe5478
# UVM_INFO ../env/apb_agent/apb_monitor.sv(81) @ 8975000: uvm_test_top.env.agent.monitor [apb_monitor] Collected: T#0 | UNKNOWN_SEQ | ADDR=0x00000164 WRITE=0 DATA=0xdebe5478 RDATA=0xdebe5478 SLVERR=0
# UVM_INFO ../env/apb_scoreboard.sv(73) @ 8975000: uvm_test_top.env.scoreboard [apb_scoreboard] T#124 [READ PASS] ADDR=0x00000164 RDATA=0xdebe5478
# UVM_INFO ../seq/apb_wr_rd_seq.sv(56) @ 8975000: uvm_test_top.env.agent.sequencer@@wr_rd_seq [apb_wr_rd_seq] READ : ADDR=0x00000164 RDATA=0xdebe5478
# UVM_INFO ../env/apb_agent/apb_monitor.sv(81) @ 9065000: uvm_test_top.env.agent.monitor [apb_monitor] Collected: T#0 | UNKNOWN_SEQ | ADDR=0x00000478 WRITE=1 DATA=0xfb9791d1 RDATA=0xdeadbeef SLVERR=1
# UVM_WARNING ../env/apb_scoreboard.sv(51) @ 9065000: uvm_test_top.env.scoreboard [apb_scoreboard] T#125 [SLVERR] ADDR=0x00000478
# UVM_INFO ../seq/apb_wr_rd_seq.sv(41) @ 9065000: uvm_test_top.env.agent.sequencer@@wr_rd_seq [apb_wr_rd_seq] WRITE: ADDR=0x00000478 DATA=0xfb9791d1
# UVM_INFO ../env/apb_agent/apb_monitor.sv(81) @ 9145000: uvm_test_top.env.agent.monitor [apb_monitor] Collected: T#0 | UNKNOWN_SEQ | ADDR=0x00000478 WRITE=0 DATA=0xdeadbeef RDATA=0xdeadbeef SLVERR=1
# UVM_WARNING ../env/apb_scoreboard.sv(51) @ 9145000: uvm_test_top.env.scoreboard [apb_scoreboard] T#126 [SLVERR] ADDR=0x00000478
# UVM_INFO ../seq/apb_wr_rd_seq.sv(56) @ 9145000: uvm_test_top.env.agent.sequencer@@wr_rd_seq [apb_wr_rd_seq] READ : ADDR=0x00000478 RDATA=0xdeadbeef
# UVM_INFO ../env/apb_agent/apb_monitor.sv(81) @ 9205000: uvm_test_top.env.agent.monitor [apb_monitor] Collected: T#0 | UNKNOWN_SEQ | ADDR=0x000001c8 WRITE=1 DATA=0xeaf9839b RDATA=0xdeadbeef SLVERR=0
# UVM_INFO ../seq/apb_wr_rd_seq.sv(41) @ 9205000: uvm_test_top.env.agent.sequencer@@wr_rd_seq [apb_wr_rd_seq] WRITE: ADDR=0x000001c8 DATA=0xeaf9839b
# UVM_INFO ../env/apb_agent/apb_monitor.sv(81) @ 9265000: uvm_test_top.env.agent.monitor [apb_monitor] Collected: T#0 | UNKNOWN_SEQ | ADDR=0x000001c8 WRITE=0 DATA=0xeaf9839b RDATA=0xeaf9839b SLVERR=0
# UVM_INFO ../env/apb_scoreboard.sv(73) @ 9265000: uvm_test_top.env.scoreboard [apb_scoreboard] T#128 [READ PASS] ADDR=0x000001c8 RDATA=0xeaf9839b
# UVM_INFO ../seq/apb_wr_rd_seq.sv(56) @ 9265000: uvm_test_top.env.agent.sequencer@@wr_rd_seq [apb_wr_rd_seq] READ : ADDR=0x000001c8 RDATA=0xeaf9839b
# UVM_INFO ../env/apb_agent/apb_monitor.sv(81) @ 9305000: uvm_test_top.env.agent.monitor [apb_monitor] Collected: T#0 | UNKNOWN_SEQ | ADDR=0x00000250 WRITE=1 DATA=0xc3ba8562 RDATA=0xeaf9839b SLVERR=0
# UVM_INFO ../seq/apb_wr_rd_seq.sv(41) @ 9305000: uvm_test_top.env.agent.sequencer@@wr_rd_seq [apb_wr_rd_seq] WRITE: ADDR=0x00000250 DATA=0xc3ba8562
# UVM_INFO ../env/apb_agent/apb_monitor.sv(81) @ 9385000: uvm_test_top.env.agent.monitor [apb_monitor] Collected: T#0 | UNKNOWN_SEQ | ADDR=0x00000250 WRITE=0 DATA=0xc3ba8562 RDATA=0xc3ba8562 SLVERR=0
# UVM_INFO ../env/apb_scoreboard.sv(73) @ 9385000: uvm_test_top.env.scoreboard [apb_scoreboard] T#130 [READ PASS] ADDR=0x00000250 RDATA=0xc3ba8562
# UVM_INFO ../seq/apb_wr_rd_seq.sv(56) @ 9385000: uvm_test_top.env.agent.sequencer@@wr_rd_seq [apb_wr_rd_seq] READ : ADDR=0x00000250 RDATA=0xc3ba8562
# UVM_INFO ../env/apb_agent/apb_monitor.sv(81) @ 9475000: uvm_test_top.env.agent.monitor [apb_monitor] Collected: T#0 | UNKNOWN_SEQ | ADDR=0x00000384 WRITE=1 DATA=0x475cfa7b RDATA=0xc3ba8562 SLVERR=0
# UVM_INFO ../seq/apb_wr_rd_seq.sv(41) @ 9475000: uvm_test_top.env.agent.sequencer@@wr_rd_seq [apb_wr_rd_seq] WRITE: ADDR=0x00000384 DATA=0x475cfa7b
# UVM_INFO ../env/apb_agent/apb_monitor.sv(81) @ 9555000: uvm_test_top.env.agent.monitor [apb_monitor] Collected: T#0 | UNKNOWN_SEQ | ADDR=0x00000384 WRITE=0 DATA=0x475cfa7b RDATA=0x475cfa7b SLVERR=0
# UVM_INFO ../env/apb_scoreboard.sv(73) @ 9555000: uvm_test_top.env.scoreboard [apb_scoreboard] T#132 [READ PASS] ADDR=0x00000384 RDATA=0x475cfa7b
# UVM_INFO ../seq/apb_wr_rd_seq.sv(56) @ 9555000: uvm_test_top.env.agent.sequencer@@wr_rd_seq [apb_wr_rd_seq] READ : ADDR=0x00000384 RDATA=0x475cfa7b
# UVM_INFO ../env/apb_agent/apb_monitor.sv(81) @ 9605000: uvm_test_top.env.agent.monitor [apb_monitor] Collected: T#0 | UNKNOWN_SEQ | ADDR=0x000002d4 WRITE=1 DATA=0x8bfffb1a RDATA=0x475cfa7b SLVERR=0
# UVM_INFO ../seq/apb_wr_rd_seq.sv(41) @ 9605000: uvm_test_top.env.agent.sequencer@@wr_rd_seq [apb_wr_rd_seq] WRITE: ADDR=0x000002d4 DATA=0x8bfffb1a
# UVM_INFO ../env/apb_agent/apb_monitor.sv(81) @ 9705000: uvm_test_top.env.agent.monitor [apb_monitor] Collected: T#0 | UNKNOWN_SEQ | ADDR=0x000002d4 WRITE=0 DATA=0x8bfffb1a RDATA=0x8bfffb1a SLVERR=0
# UVM_INFO ../env/apb_scoreboard.sv(73) @ 9705000: uvm_test_top.env.scoreboard [apb_scoreboard] T#134 [READ PASS] ADDR=0x000002d4 RDATA=0x8bfffb1a
# UVM_INFO ../seq/apb_wr_rd_seq.sv(56) @ 9705000: uvm_test_top.env.agent.sequencer@@wr_rd_seq [apb_wr_rd_seq] READ : ADDR=0x000002d4 RDATA=0x8bfffb1a
# UVM_INFO ../env/apb_agent/apb_monitor.sv(81) @ 9805000: uvm_test_top.env.agent.monitor [apb_monitor] Collected: T#0 | UNKNOWN_SEQ | ADDR=0x0000027c WRITE=1 DATA=0xe4c9b0f5 RDATA=0x8bfffb1a SLVERR=0
# UVM_INFO ../seq/apb_wr_rd_seq.sv(41) @ 9805000: uvm_test_top.env.agent.sequencer@@wr_rd_seq [apb_wr_rd_seq] WRITE: ADDR=0x0000027c DATA=0xe4c9b0f5
# UVM_INFO ../env/apb_agent/apb_monitor.sv(81) @ 9855000: uvm_test_top.env.agent.monitor [apb_monitor] Collected: T#0 | UNKNOWN_SEQ | ADDR=0x0000027c WRITE=0 DATA=0xe4c9b0f5 RDATA=0xe4c9b0f5 SLVERR=0
# UVM_INFO ../env/apb_scoreboard.sv(73) @ 9855000: uvm_test_top.env.scoreboard [apb_scoreboard] T#136 [READ PASS] ADDR=0x0000027c RDATA=0xe4c9b0f5
# UVM_INFO ../seq/apb_wr_rd_seq.sv(56) @ 9855000: uvm_test_top.env.agent.sequencer@@wr_rd_seq [apb_wr_rd_seq] READ : ADDR=0x0000027c RDATA=0xe4c9b0f5
# UVM_INFO ../env/apb_agent/apb_monitor.sv(81) @ 9945000: uvm_test_top.env.agent.monitor [apb_monitor] Collected: T#0 | UNKNOWN_SEQ | ADDR=0x000004e0 WRITE=1 DATA=0x1ede8fed RDATA=0xdeadbeef SLVERR=1
# UVM_WARNING ../env/apb_scoreboard.sv(51) @ 9945000: uvm_test_top.env.scoreboard [apb_scoreboard] T#137 [SLVERR] ADDR=0x000004e0
# UVM_INFO ../seq/apb_wr_rd_seq.sv(41) @ 9945000: uvm_test_top.env.agent.sequencer@@wr_rd_seq [apb_wr_rd_seq] WRITE: ADDR=0x000004e0 DATA=0x1ede8fed
# UVM_INFO ../env/apb_agent/apb_monitor.sv(81) @ 10025000: uvm_test_top.env.agent.monitor [apb_monitor] Collected: T#0 | UNKNOWN_SEQ | ADDR=0x000004e0 WRITE=0 DATA=0xdeadbeef RDATA=0xdeadbeef SLVERR=1
# UVM_WARNING ../env/apb_scoreboard.sv(51) @ 10025000: uvm_test_top.env.scoreboard [apb_scoreboard] T#138 [SLVERR] ADDR=0x000004e0
# UVM_INFO ../seq/apb_wr_rd_seq.sv(56) @ 10025000: uvm_test_top.env.agent.sequencer@@wr_rd_seq [apb_wr_rd_seq] READ : ADDR=0x000004e0 RDATA=0xdeadbeef
# UVM_INFO ../env/apb_agent/apb_monitor.sv(81) @ 10115000: uvm_test_top.env.agent.monitor [apb_monitor] Collected: T#0 | UNKNOWN_SEQ | ADDR=0x00000048 WRITE=1 DATA=0x064d31b1 RDATA=0xdeadbeef SLVERR=0
# UVM_INFO ../seq/apb_wr_rd_seq.sv(41) @ 10115000: uvm_test_top.env.agent.sequencer@@wr_rd_seq [apb_wr_rd_seq] WRITE: ADDR=0x00000048 DATA=0x064d31b1
# UVM_INFO ../env/apb_agent/apb_monitor.sv(81) @ 10195000: uvm_test_top.env.agent.monitor [apb_monitor] Collected: T#0 | UNKNOWN_SEQ | ADDR=0x00000048 WRITE=0 DATA=0x064d31b1 RDATA=0x064d31b1 SLVERR=0
# UVM_INFO ../env/apb_scoreboard.sv(73) @ 10195000: uvm_test_top.env.scoreboard [apb_scoreboard] T#140 [READ PASS] ADDR=0x00000048 RDATA=0x064d31b1
# UVM_INFO ../seq/apb_wr_rd_seq.sv(56) @ 10195000: uvm_test_top.env.agent.sequencer@@wr_rd_seq [apb_wr_rd_seq] READ : ADDR=0x00000048 RDATA=0x064d31b1
# UVM_INFO ../env/apb_agent/apb_monitor.sv(81) @ 10265000: uvm_test_top.env.agent.monitor [apb_monitor] Collected: T#0 | UNKNOWN_SEQ | ADDR=0x0000037c WRITE=1 DATA=0xafd8a9b9 RDATA=0x064d31b1 SLVERR=0
# UVM_INFO ../seq/apb_wr_rd_seq.sv(41) @ 10265000: uvm_test_top.env.agent.sequencer@@wr_rd_seq [apb_wr_rd_seq] WRITE: ADDR=0x0000037c DATA=0xafd8a9b9
# UVM_INFO ../env/apb_agent/apb_monitor.sv(81) @ 10355000: uvm_test_top.env.agent.monitor [apb_monitor] Collected: T#0 | UNKNOWN_SEQ | ADDR=0x0000037c WRITE=0 DATA=0xafd8a9b9 RDATA=0xafd8a9b9 SLVERR=0
# UVM_INFO ../env/apb_scoreboard.sv(73) @ 10355000: uvm_test_top.env.scoreboard [apb_scoreboard] T#142 [READ PASS] ADDR=0x0000037c RDATA=0xafd8a9b9
# UVM_INFO ../seq/apb_wr_rd_seq.sv(56) @ 10355000: uvm_test_top.env.agent.sequencer@@wr_rd_seq [apb_wr_rd_seq] READ : ADDR=0x0000037c RDATA=0xafd8a9b9
# UVM_INFO ../env/apb_agent/apb_monitor.sv(81) @ 10465000: uvm_test_top.env.agent.monitor [apb_monitor] Collected: T#0 | UNKNOWN_SEQ | ADDR=0x00000410 WRITE=1 DATA=0x03c10e4b RDATA=0xdeadbeef SLVERR=1
# UVM_WARNING ../env/apb_scoreboard.sv(51) @ 10465000: uvm_test_top.env.scoreboard [apb_scoreboard] T#143 [SLVERR] ADDR=0x00000410
# UVM_INFO ../seq/apb_wr_rd_seq.sv(41) @ 10465000: uvm_test_top.env.agent.sequencer@@wr_rd_seq [apb_wr_rd_seq] WRITE: ADDR=0x00000410 DATA=0x03c10e4b
# UVM_INFO ../env/apb_agent/apb_monitor.sv(81) @ 10505000: uvm_test_top.env.agent.monitor [apb_monitor] Collected: T#0 | UNKNOWN_SEQ | ADDR=0x00000410 WRITE=0 DATA=0xdeadbeef RDATA=0xdeadbeef SLVERR=1
# UVM_WARNING ../env/apb_scoreboard.sv(51) @ 10505000: uvm_test_top.env.scoreboard [apb_scoreboard] T#144 [SLVERR] ADDR=0x00000410
# UVM_INFO ../seq/apb_wr_rd_seq.sv(56) @ 10505000: uvm_test_top.env.agent.sequencer@@wr_rd_seq [apb_wr_rd_seq] READ : ADDR=0x00000410 RDATA=0xdeadbeef
# UVM_INFO ../env/apb_agent/apb_monitor.sv(81) @ 10575000: uvm_test_top.env.agent.monitor [apb_monitor] Collected: T#0 | UNKNOWN_SEQ | ADDR=0x0000030c WRITE=1 DATA=0x91ba48a3 RDATA=0xdeadbeef SLVERR=0
# UVM_INFO ../seq/apb_wr_rd_seq.sv(41) @ 10575000: uvm_test_top.env.agent.sequencer@@wr_rd_seq [apb_wr_rd_seq] WRITE: ADDR=0x0000030c DATA=0x91ba48a3
# UVM_INFO ../env/apb_agent/apb_monitor.sv(81) @ 10665000: uvm_test_top.env.agent.monitor [apb_monitor] Collected: T#0 | UNKNOWN_SEQ | ADDR=0x0000030c WRITE=0 DATA=0x91ba48a3 RDATA=0x91ba48a3 SLVERR=0
# UVM_INFO ../env/apb_scoreboard.sv(73) @ 10665000: uvm_test_top.env.scoreboard [apb_scoreboard] T#146 [READ PASS] ADDR=0x0000030c RDATA=0x91ba48a3
# UVM_INFO ../seq/apb_wr_rd_seq.sv(56) @ 10665000: uvm_test_top.env.agent.sequencer@@wr_rd_seq [apb_wr_rd_seq] READ : ADDR=0x0000030c RDATA=0x91ba48a3
# UVM_INFO ../env/apb_agent/apb_monitor.sv(81) @ 10725000: uvm_test_top.env.agent.monitor [apb_monitor] Collected: T#0 | UNKNOWN_SEQ | ADDR=0x00000310 WRITE=1 DATA=0xa1064da3 RDATA=0x91ba48a3 SLVERR=0
# UVM_INFO ../seq/apb_wr_rd_seq.sv(41) @ 10725000: uvm_test_top.env.agent.sequencer@@wr_rd_seq [apb_wr_rd_seq] WRITE: ADDR=0x00000310 DATA=0xa1064da3
# UVM_INFO ../env/apb_agent/apb_monitor.sv(81) @ 10815000: uvm_test_top.env.agent.monitor [apb_monitor] Collected: T#0 | UNKNOWN_SEQ | ADDR=0x00000310 WRITE=0 DATA=0xa1064da3 RDATA=0xa1064da3 SLVERR=0
# UVM_INFO ../env/apb_scoreboard.sv(73) @ 10815000: uvm_test_top.env.scoreboard [apb_scoreboard] T#148 [READ PASS] ADDR=0x00000310 RDATA=0xa1064da3
# UVM_INFO ../seq/apb_wr_rd_seq.sv(56) @ 10815000: uvm_test_top.env.agent.sequencer@@wr_rd_seq [apb_wr_rd_seq] READ : ADDR=0x00000310 RDATA=0xa1064da3
# UVM_INFO ../env/apb_agent/apb_monitor.sv(81) @ 10865000: uvm_test_top.env.agent.monitor [apb_monitor] Collected: T#0 | UNKNOWN_SEQ | ADDR=0x00000098 WRITE=1 DATA=0x4e170bac RDATA=0xa1064da3 SLVERR=0
# UVM_INFO ../seq/apb_wr_rd_seq.sv(41) @ 10865000: uvm_test_top.env.agent.sequencer@@wr_rd_seq [apb_wr_rd_seq] WRITE: ADDR=0x00000098 DATA=0x4e170bac
# UVM_INFO ../env/apb_agent/apb_monitor.sv(81) @ 10965000: uvm_test_top.env.agent.monitor [apb_monitor] Collected: T#0 | UNKNOWN_SEQ | ADDR=0x00000098 WRITE=0 DATA=0x4e170bac RDATA=0x4e170bac SLVERR=0
# UVM_INFO ../env/apb_scoreboard.sv(73) @ 10965000: uvm_test_top.env.scoreboard [apb_scoreboard] T#150 [READ PASS] ADDR=0x00000098 RDATA=0x4e170bac
# UVM_INFO ../seq/apb_wr_rd_seq.sv(56) @ 10965000: uvm_test_top.env.agent.sequencer@@wr_rd_seq [apb_wr_rd_seq] READ : ADDR=0x00000098 RDATA=0x4e170bac
# UVM_INFO ../env/apb_agent/apb_monitor.sv(81) @ 11055000: uvm_test_top.env.agent.monitor [apb_monitor] Collected: T#0 | UNKNOWN_SEQ | ADDR=0x000002b4 WRITE=1 DATA=0x13aa0584 RDATA=0x4e170bac SLVERR=0
# UVM_INFO ../seq/apb_wr_rd_seq.sv(41) @ 11055000: uvm_test_top.env.agent.sequencer@@wr_rd_seq [apb_wr_rd_seq] WRITE: ADDR=0x000002b4 DATA=0x13aa0584
# UVM_INFO ../env/apb_agent/apb_monitor.sv(81) @ 11135000: uvm_test_top.env.agent.monitor [apb_monitor] Collected: T#0 | UNKNOWN_SEQ | ADDR=0x000002b4 WRITE=0 DATA=0x13aa0584 RDATA=0x13aa0584 SLVERR=0
# UVM_INFO ../env/apb_scoreboard.sv(73) @ 11135000: uvm_test_top.env.scoreboard [apb_scoreboard] T#152 [READ PASS] ADDR=0x000002b4 RDATA=0x13aa0584
# UVM_INFO ../seq/apb_wr_rd_seq.sv(56) @ 11135000: uvm_test_top.env.agent.sequencer@@wr_rd_seq [apb_wr_rd_seq] READ : ADDR=0x000002b4 RDATA=0x13aa0584
# UVM_INFO ../env/apb_agent/apb_monitor.sv(81) @ 11175000: uvm_test_top.env.agent.monitor [apb_monitor] Collected: T#0 | UNKNOWN_SEQ | ADDR=0x00000390 WRITE=1 DATA=0x4fbd2332 RDATA=0x13aa0584 SLVERR=0
# UVM_INFO ../seq/apb_wr_rd_seq.sv(41) @ 11175000: uvm_test_top.env.agent.sequencer@@wr_rd_seq [apb_wr_rd_seq] WRITE: ADDR=0x00000390 DATA=0x4fbd2332
# UVM_INFO ../env/apb_agent/apb_monitor.sv(81) @ 11245000: uvm_test_top.env.agent.monitor [apb_monitor] Collected: T#0 | UNKNOWN_SEQ | ADDR=0x00000390 WRITE=0 DATA=0x4fbd2332 RDATA=0x4fbd2332 SLVERR=0
# UVM_INFO ../env/apb_scoreboard.sv(73) @ 11245000: uvm_test_top.env.scoreboard [apb_scoreboard] T#154 [READ PASS] ADDR=0x00000390 RDATA=0x4fbd2332
# UVM_INFO ../seq/apb_wr_rd_seq.sv(56) @ 11245000: uvm_test_top.env.agent.sequencer@@wr_rd_seq [apb_wr_rd_seq] READ : ADDR=0x00000390 RDATA=0x4fbd2332
# UVM_INFO ../env/apb_agent/apb_monitor.sv(81) @ 11345000: uvm_test_top.env.agent.monitor [apb_monitor] Collected: T#0 | UNKNOWN_SEQ | ADDR=0x000003a4 WRITE=1 DATA=0x456870e0 RDATA=0x4fbd2332 SLVERR=0
# UVM_INFO ../seq/apb_wr_rd_seq.sv(41) @ 11345000: uvm_test_top.env.agent.sequencer@@wr_rd_seq [apb_wr_rd_seq] WRITE: ADDR=0x000003a4 DATA=0x456870e0
# UVM_INFO ../env/apb_agent/apb_monitor.sv(81) @ 11455000: uvm_test_top.env.agent.monitor [apb_monitor] Collected: T#0 | UNKNOWN_SEQ | ADDR=0x000003a4 WRITE=0 DATA=0x456870e0 RDATA=0x456870e0 SLVERR=0
# UVM_INFO ../env/apb_scoreboard.sv(73) @ 11455000: uvm_test_top.env.scoreboard [apb_scoreboard] T#156 [READ PASS] ADDR=0x000003a4 RDATA=0x456870e0
# UVM_INFO ../seq/apb_wr_rd_seq.sv(56) @ 11455000: uvm_test_top.env.agent.sequencer@@wr_rd_seq [apb_wr_rd_seq] READ : ADDR=0x000003a4 RDATA=0x456870e0
# UVM_INFO ../env/apb_agent/apb_monitor.sv(81) @ 11505000: uvm_test_top.env.agent.monitor [apb_monitor] Collected: T#0 | UNKNOWN_SEQ | ADDR=0x00000380 WRITE=1 DATA=0x0abd4087 RDATA=0x456870e0 SLVERR=0
# UVM_INFO ../seq/apb_wr_rd_seq.sv(41) @ 11505000: uvm_test_top.env.agent.sequencer@@wr_rd_seq [apb_wr_rd_seq] WRITE: ADDR=0x00000380 DATA=0x0abd4087
# UVM_INFO ../env/apb_agent/apb_monitor.sv(81) @ 11605000: uvm_test_top.env.agent.monitor [apb_monitor] Collected: T#0 | UNKNOWN_SEQ | ADDR=0x00000380 WRITE=0 DATA=0x0abd4087 RDATA=0x0abd4087 SLVERR=0
# UVM_INFO ../env/apb_scoreboard.sv(73) @ 11605000: uvm_test_top.env.scoreboard [apb_scoreboard] T#158 [READ PASS] ADDR=0x00000380 RDATA=0x0abd4087
# UVM_INFO ../seq/apb_wr_rd_seq.sv(56) @ 11605000: uvm_test_top.env.agent.sequencer@@wr_rd_seq [apb_wr_rd_seq] READ : ADDR=0x00000380 RDATA=0x0abd4087
# UVM_INFO ../env/apb_agent/apb_monitor.sv(81) @ 11645000: uvm_test_top.env.agent.monitor [apb_monitor] Collected: T#0 | UNKNOWN_SEQ | ADDR=0x00000418 WRITE=1 DATA=0x46dc7f1d RDATA=0xdeadbeef SLVERR=1
# UVM_WARNING ../env/apb_scoreboard.sv(51) @ 11645000: uvm_test_top.env.scoreboard [apb_scoreboard] T#159 [SLVERR] ADDR=0x00000418
# UVM_INFO ../seq/apb_wr_rd_seq.sv(41) @ 11645000: uvm_test_top.env.agent.sequencer@@wr_rd_seq [apb_wr_rd_seq] WRITE: ADDR=0x00000418 DATA=0x46dc7f1d
# UVM_INFO ../env/apb_agent/apb_monitor.sv(81) @ 11755000: uvm_test_top.env.agent.monitor [apb_monitor] Collected: T#0 | UNKNOWN_SEQ | ADDR=0x00000418 WRITE=0 DATA=0xdeadbeef RDATA=0xdeadbeef SLVERR=1
# UVM_WARNING ../env/apb_scoreboard.sv(51) @ 11755000: uvm_test_top.env.scoreboard [apb_scoreboard] T#160 [SLVERR] ADDR=0x00000418
# UVM_INFO ../seq/apb_wr_rd_seq.sv(56) @ 11755000: uvm_test_top.env.agent.sequencer@@wr_rd_seq [apb_wr_rd_seq] READ : ADDR=0x00000418 RDATA=0xdeadbeef
# UVM_INFO ../env/apb_agent/apb_monitor.sv(81) @ 11835000: uvm_test_top.env.agent.monitor [apb_monitor] Collected: T#0 | UNKNOWN_SEQ | ADDR=0x0000049c WRITE=1 DATA=0x0e224564 RDATA=0xdeadbeef SLVERR=1
# UVM_WARNING ../env/apb_scoreboard.sv(51) @ 11835000: uvm_test_top.env.scoreboard [apb_scoreboard] T#161 [SLVERR] ADDR=0x0000049c
# UVM_INFO ../seq/apb_wr_rd_seq.sv(41) @ 11835000: uvm_test_top.env.agent.sequencer@@wr_rd_seq [apb_wr_rd_seq] WRITE: ADDR=0x0000049c DATA=0x0e224564
# UVM_INFO ../env/apb_agent/apb_monitor.sv(81) @ 11895000: uvm_test_top.env.agent.monitor [apb_monitor] Collected: T#0 | UNKNOWN_SEQ | ADDR=0x0000049c WRITE=0 DATA=0xdeadbeef RDATA=0xdeadbeef SLVERR=1
# UVM_WARNING ../env/apb_scoreboard.sv(51) @ 11895000: uvm_test_top.env.scoreboard [apb_scoreboard] T#162 [SLVERR] ADDR=0x0000049c
# UVM_INFO ../seq/apb_wr_rd_seq.sv(56) @ 11895000: uvm_test_top.env.agent.sequencer@@wr_rd_seq [apb_wr_rd_seq] READ : ADDR=0x0000049c RDATA=0xdeadbeef
# UVM_INFO ../env/apb_agent/apb_monitor.sv(81) @ 11955000: uvm_test_top.env.agent.monitor [apb_monitor] Collected: T#0 | UNKNOWN_SEQ | ADDR=0x00000480 WRITE=1 DATA=0x946b2ce7 RDATA=0xdeadbeef SLVERR=1
# UVM_WARNING ../env/apb_scoreboard.sv(51) @ 11955000: uvm_test_top.env.scoreboard [apb_scoreboard] T#163 [SLVERR] ADDR=0x00000480
# UVM_INFO ../seq/apb_wr_rd_seq.sv(41) @ 11955000: uvm_test_top.env.agent.sequencer@@wr_rd_seq [apb_wr_rd_seq] WRITE: ADDR=0x00000480 DATA=0x946b2ce7
# UVM_INFO ../env/apb_agent/apb_monitor.sv(81) @ 12015000: uvm_test_top.env.agent.monitor [apb_monitor] Collected: T#0 | UNKNOWN_SEQ | ADDR=0x00000480 WRITE=0 DATA=0xdeadbeef RDATA=0xdeadbeef SLVERR=1
# UVM_WARNING ../env/apb_scoreboard.sv(51) @ 12015000: uvm_test_top.env.scoreboard [apb_scoreboard] T#164 [SLVERR] ADDR=0x00000480
# UVM_INFO ../seq/apb_wr_rd_seq.sv(56) @ 12015000: uvm_test_top.env.agent.sequencer@@wr_rd_seq [apb_wr_rd_seq] READ : ADDR=0x00000480 RDATA=0xdeadbeef
# UVM_INFO ../env/apb_agent/apb_monitor.sv(81) @ 12055000: uvm_test_top.env.agent.monitor [apb_monitor] Collected: T#0 | UNKNOWN_SEQ | ADDR=0x00000368 WRITE=1 DATA=0xe482b318 RDATA=0xdeadbeef SLVERR=0
# UVM_INFO ../seq/apb_wr_rd_seq.sv(41) @ 12055000: uvm_test_top.env.agent.sequencer@@wr_rd_seq [apb_wr_rd_seq] WRITE: ADDR=0x00000368 DATA=0xe482b318
# UVM_INFO ../env/apb_agent/apb_monitor.sv(81) @ 12165000: uvm_test_top.env.agent.monitor [apb_monitor] Collected: T#0 | UNKNOWN_SEQ | ADDR=0x00000368 WRITE=0 DATA=0xe482b318 RDATA=0xe482b318 SLVERR=0
# UVM_INFO ../env/apb_scoreboard.sv(73) @ 12165000: uvm_test_top.env.scoreboard [apb_scoreboard] T#166 [READ PASS] ADDR=0x00000368 RDATA=0xe482b318
# UVM_INFO ../seq/apb_wr_rd_seq.sv(56) @ 12165000: uvm_test_top.env.agent.sequencer@@wr_rd_seq [apb_wr_rd_seq] READ : ADDR=0x00000368 RDATA=0xe482b318
# UVM_INFO ../env/apb_agent/apb_monitor.sv(81) @ 12215000: uvm_test_top.env.agent.monitor [apb_monitor] Collected: T#0 | UNKNOWN_SEQ | ADDR=0x000002b4 WRITE=1 DATA=0x0352367e RDATA=0xe482b318 SLVERR=0
# UVM_INFO ../seq/apb_wr_rd_seq.sv(41) @ 12215000: uvm_test_top.env.agent.sequencer@@wr_rd_seq [apb_wr_rd_seq] WRITE: ADDR=0x000002b4 DATA=0x0352367e
# UVM_INFO ../env/apb_agent/apb_monitor.sv(81) @ 12255000: uvm_test_top.env.agent.monitor [apb_monitor] Collected: T#0 | UNKNOWN_SEQ | ADDR=0x000002b4 WRITE=0 DATA=0x0352367e RDATA=0x0352367e SLVERR=0
# UVM_INFO ../env/apb_scoreboard.sv(73) @ 12255000: uvm_test_top.env.scoreboard [apb_scoreboard] T#168 [READ PASS] ADDR=0x000002b4 RDATA=0x0352367e
# UVM_INFO ../seq/apb_wr_rd_seq.sv(56) @ 12255000: uvm_test_top.env.agent.sequencer@@wr_rd_seq [apb_wr_rd_seq] READ : ADDR=0x000002b4 RDATA=0x0352367e
# UVM_INFO ../env/apb_agent/apb_monitor.sv(81) @ 12305000: uvm_test_top.env.agent.monitor [apb_monitor] Collected: T#0 | UNKNOWN_SEQ | ADDR=0x0000042c WRITE=1 DATA=0x443a5d80 RDATA=0xdeadbeef SLVERR=1
# UVM_WARNING ../env/apb_scoreboard.sv(51) @ 12305000: uvm_test_top.env.scoreboard [apb_scoreboard] T#169 [SLVERR] ADDR=0x0000042c
# UVM_INFO ../seq/apb_wr_rd_seq.sv(41) @ 12305000: uvm_test_top.env.agent.sequencer@@wr_rd_seq [apb_wr_rd_seq] WRITE: ADDR=0x0000042c DATA=0x443a5d80
# UVM_INFO ../env/apb_agent/apb_monitor.sv(81) @ 12395000: uvm_test_top.env.agent.monitor [apb_monitor] Collected: T#0 | UNKNOWN_SEQ | ADDR=0x0000042c WRITE=0 DATA=0xdeadbeef RDATA=0xdeadbeef SLVERR=1
# UVM_WARNING ../env/apb_scoreboard.sv(51) @ 12395000: uvm_test_top.env.scoreboard [apb_scoreboard] T#170 [SLVERR] ADDR=0x0000042c
# UVM_INFO ../seq/apb_wr_rd_seq.sv(56) @ 12395000: uvm_test_top.env.agent.sequencer@@wr_rd_seq [apb_wr_rd_seq] READ : ADDR=0x0000042c RDATA=0xdeadbeef
# UVM_INFO ../env/apb_agent/apb_monitor.sv(81) @ 12435000: uvm_test_top.env.agent.monitor [apb_monitor] Collected: T#0 | UNKNOWN_SEQ | ADDR=0x00000338 WRITE=1 DATA=0xd5d0de52 RDATA=0xdeadbeef SLVERR=0
# UVM_INFO ../seq/apb_wr_rd_seq.sv(41) @ 12435000: uvm_test_top.env.agent.sequencer@@wr_rd_seq [apb_wr_rd_seq] WRITE: ADDR=0x00000338 DATA=0xd5d0de52
# UVM_INFO ../env/apb_agent/apb_monitor.sv(81) @ 12545000: uvm_test_top.env.agent.monitor [apb_monitor] Collected: T#0 | UNKNOWN_SEQ | ADDR=0x00000338 WRITE=0 DATA=0xd5d0de52 RDATA=0xd5d0de52 SLVERR=0
# UVM_INFO ../env/apb_scoreboard.sv(73) @ 12545000: uvm_test_top.env.scoreboard [apb_scoreboard] T#172 [READ PASS] ADDR=0x00000338 RDATA=0xd5d0de52
# UVM_INFO ../seq/apb_wr_rd_seq.sv(56) @ 12545000: uvm_test_top.env.agent.sequencer@@wr_rd_seq [apb_wr_rd_seq] READ : ADDR=0x00000338 RDATA=0xd5d0de52
# UVM_INFO ../env/apb_agent/apb_monitor.sv(81) @ 12585000: uvm_test_top.env.agent.monitor [apb_monitor] Collected: T#0 | UNKNOWN_SEQ | ADDR=0x000001b8 WRITE=1 DATA=0x6feef636 RDATA=0xd5d0de52 SLVERR=0
# UVM_INFO ../seq/apb_wr_rd_seq.sv(41) @ 12585000: uvm_test_top.env.agent.sequencer@@wr_rd_seq [apb_wr_rd_seq] WRITE: ADDR=0x000001b8 DATA=0x6feef636
# UVM_INFO ../env/apb_agent/apb_monitor.sv(81) @ 12625000: uvm_test_top.env.agent.monitor [apb_monitor] Collected: T#0 | UNKNOWN_SEQ | ADDR=0x000001b8 WRITE=0 DATA=0x6feef636 RDATA=0x6feef636 SLVERR=0
# UVM_INFO ../env/apb_scoreboard.sv(73) @ 12625000: uvm_test_top.env.scoreboard [apb_scoreboard] T#174 [READ PASS] ADDR=0x000001b8 RDATA=0x6feef636
# UVM_INFO ../seq/apb_wr_rd_seq.sv(56) @ 12625000: uvm_test_top.env.agent.sequencer@@wr_rd_seq [apb_wr_rd_seq] READ : ADDR=0x000001b8 RDATA=0x6feef636
# UVM_INFO ../env/apb_agent/apb_monitor.sv(81) @ 12705000: uvm_test_top.env.agent.monitor [apb_monitor] Collected: T#0 | UNKNOWN_SEQ | ADDR=0x000004b8 WRITE=1 DATA=0xddc9fd35 RDATA=0xdeadbeef SLVERR=1
# UVM_WARNING ../env/apb_scoreboard.sv(51) @ 12705000: uvm_test_top.env.scoreboard [apb_scoreboard] T#175 [SLVERR] ADDR=0x000004b8
# UVM_INFO ../seq/apb_wr_rd_seq.sv(41) @ 12705000: uvm_test_top.env.agent.sequencer@@wr_rd_seq [apb_wr_rd_seq] WRITE: ADDR=0x000004b8 DATA=0xddc9fd35
# UVM_INFO ../env/apb_agent/apb_monitor.sv(81) @ 12775000: uvm_test_top.env.agent.monitor [apb_monitor] Collected: T#0 | UNKNOWN_SEQ | ADDR=0x000004b8 WRITE=0 DATA=0xdeadbeef RDATA=0xdeadbeef SLVERR=1
# UVM_WARNING ../env/apb_scoreboard.sv(51) @ 12775000: uvm_test_top.env.scoreboard [apb_scoreboard] T#176 [SLVERR] ADDR=0x000004b8
# UVM_INFO ../seq/apb_wr_rd_seq.sv(56) @ 12775000: uvm_test_top.env.agent.sequencer@@wr_rd_seq [apb_wr_rd_seq] READ : ADDR=0x000004b8 RDATA=0xdeadbeef
# UVM_INFO ../env/apb_agent/apb_monitor.sv(81) @ 12835000: uvm_test_top.env.agent.monitor [apb_monitor] Collected: T#0 | UNKNOWN_SEQ | ADDR=0x000001f0 WRITE=1 DATA=0xc3e25352 RDATA=0xdeadbeef SLVERR=0
# UVM_INFO ../seq/apb_wr_rd_seq.sv(41) @ 12835000: uvm_test_top.env.agent.sequencer@@wr_rd_seq [apb_wr_rd_seq] WRITE: ADDR=0x000001f0 DATA=0xc3e25352
# UVM_INFO ../env/apb_agent/apb_monitor.sv(81) @ 12895000: uvm_test_top.env.agent.monitor [apb_monitor] Collected: T#0 | UNKNOWN_SEQ | ADDR=0x000001f0 WRITE=0 DATA=0xc3e25352 RDATA=0xc3e25352 SLVERR=0
# UVM_INFO ../env/apb_scoreboard.sv(73) @ 12895000: uvm_test_top.env.scoreboard [apb_scoreboard] T#178 [READ PASS] ADDR=0x000001f0 RDATA=0xc3e25352
# UVM_INFO ../seq/apb_wr_rd_seq.sv(56) @ 12895000: uvm_test_top.env.agent.sequencer@@wr_rd_seq [apb_wr_rd_seq] READ : ADDR=0x000001f0 RDATA=0xc3e25352
# UVM_INFO ../env/apb_agent/apb_monitor.sv(81) @ 12945000: uvm_test_top.env.agent.monitor [apb_monitor] Collected: T#0 | UNKNOWN_SEQ | ADDR=0x00000148 WRITE=1 DATA=0x02becd7d RDATA=0xc3e25352 SLVERR=0
# UVM_INFO ../seq/apb_wr_rd_seq.sv(41) @ 12945000: uvm_test_top.env.agent.sequencer@@wr_rd_seq [apb_wr_rd_seq] WRITE: ADDR=0x00000148 DATA=0x02becd7d
# UVM_INFO ../env/apb_agent/apb_monitor.sv(81) @ 13055000: uvm_test_top.env.agent.monitor [apb_monitor] Collected: T#0 | UNKNOWN_SEQ | ADDR=0x00000148 WRITE=0 DATA=0x02becd7d RDATA=0x02becd7d SLVERR=0
# UVM_INFO ../env/apb_scoreboard.sv(73) @ 13055000: uvm_test_top.env.scoreboard [apb_scoreboard] T#180 [READ PASS] ADDR=0x00000148 RDATA=0x02becd7d
# UVM_INFO ../seq/apb_wr_rd_seq.sv(56) @ 13055000: uvm_test_top.env.agent.sequencer@@wr_rd_seq [apb_wr_rd_seq] READ : ADDR=0x00000148 RDATA=0x02becd7d
# UVM_INFO ../env/apb_agent/apb_monitor.sv(81) @ 13095000: uvm_test_top.env.agent.monitor [apb_monitor] Collected: T#0 | UNKNOWN_SEQ | ADDR=0x00000264 WRITE=1 DATA=0x637c808c RDATA=0x02becd7d SLVERR=0
# UVM_INFO ../seq/apb_wr_rd_seq.sv(41) @ 13095000: uvm_test_top.env.agent.sequencer@@wr_rd_seq [apb_wr_rd_seq] WRITE: ADDR=0x00000264 DATA=0x637c808c
# UVM_INFO ../env/apb_agent/apb_monitor.sv(81) @ 13155000: uvm_test_top.env.agent.monitor [apb_monitor] Collected: T#0 | UNKNOWN_SEQ | ADDR=0x00000264 WRITE=0 DATA=0x637c808c RDATA=0x637c808c SLVERR=0
# UVM_INFO ../env/apb_scoreboard.sv(73) @ 13155000: uvm_test_top.env.scoreboard [apb_scoreboard] T#182 [READ PASS] ADDR=0x00000264 RDATA=0x637c808c
# UVM_INFO ../seq/apb_wr_rd_seq.sv(56) @ 13155000: uvm_test_top.env.agent.sequencer@@wr_rd_seq [apb_wr_rd_seq] READ : ADDR=0x00000264 RDATA=0x637c808c
# UVM_INFO ../env/apb_agent/apb_monitor.sv(81) @ 13205000: uvm_test_top.env.agent.monitor [apb_monitor] Collected: T#0 | UNKNOWN_SEQ | ADDR=0x00000360 WRITE=1 DATA=0x2fe7d554 RDATA=0x637c808c SLVERR=0
# UVM_INFO ../seq/apb_wr_rd_seq.sv(41) @ 13205000: uvm_test_top.env.agent.sequencer@@wr_rd_seq [apb_wr_rd_seq] WRITE: ADDR=0x00000360 DATA=0x2fe7d554
# UVM_INFO ../env/apb_agent/apb_monitor.sv(81) @ 13245000: uvm_test_top.env.agent.monitor [apb_monitor] Collected: T#0 | UNKNOWN_SEQ | ADDR=0x00000360 WRITE=0 DATA=0x2fe7d554 RDATA=0x2fe7d554 SLVERR=0
# UVM_INFO ../env/apb_scoreboard.sv(73) @ 13245000: uvm_test_top.env.scoreboard [apb_scoreboard] T#184 [READ PASS] ADDR=0x00000360 RDATA=0x2fe7d554
# UVM_INFO ../seq/apb_wr_rd_seq.sv(56) @ 13245000: uvm_test_top.env.agent.sequencer@@wr_rd_seq [apb_wr_rd_seq] READ : ADDR=0x00000360 RDATA=0x2fe7d554
# UVM_INFO ../env/apb_agent/apb_monitor.sv(81) @ 13345000: uvm_test_top.env.agent.monitor [apb_monitor] Collected: T#0 | UNKNOWN_SEQ | ADDR=0x00000268 WRITE=1 DATA=0xf95b6d07 RDATA=0x2fe7d554 SLVERR=0
# UVM_INFO ../seq/apb_wr_rd_seq.sv(41) @ 13345000: uvm_test_top.env.agent.sequencer@@wr_rd_seq [apb_wr_rd_seq] WRITE: ADDR=0x00000268 DATA=0xf95b6d07
# UVM_INFO ../env/apb_agent/apb_monitor.sv(81) @ 13405000: uvm_test_top.env.agent.monitor [apb_monitor] Collected: T#0 | UNKNOWN_SEQ | ADDR=0x00000268 WRITE=0 DATA=0xf95b6d07 RDATA=0xf95b6d07 SLVERR=0
# UVM_INFO ../env/apb_scoreboard.sv(73) @ 13405000: uvm_test_top.env.scoreboard [apb_scoreboard] T#186 [READ PASS] ADDR=0x00000268 RDATA=0xf95b6d07
# UVM_INFO ../seq/apb_wr_rd_seq.sv(56) @ 13405000: uvm_test_top.env.agent.sequencer@@wr_rd_seq [apb_wr_rd_seq] READ : ADDR=0x00000268 RDATA=0xf95b6d07
# UVM_INFO ../env/apb_agent/apb_monitor.sv(81) @ 13505000: uvm_test_top.env.agent.monitor [apb_monitor] Collected: T#0 | UNKNOWN_SEQ | ADDR=0x0000018c WRITE=1 DATA=0xeb4a6175 RDATA=0xf95b6d07 SLVERR=0
# UVM_INFO ../seq/apb_wr_rd_seq.sv(41) @ 13505000: uvm_test_top.env.agent.sequencer@@wr_rd_seq [apb_wr_rd_seq] WRITE: ADDR=0x0000018c DATA=0xeb4a6175
# UVM_INFO ../env/apb_agent/apb_monitor.sv(81) @ 13545000: uvm_test_top.env.agent.monitor [apb_monitor] Collected: T#0 | UNKNOWN_SEQ | ADDR=0x0000018c WRITE=0 DATA=0xeb4a6175 RDATA=0xeb4a6175 SLVERR=0
# UVM_INFO ../env/apb_scoreboard.sv(73) @ 13545000: uvm_test_top.env.scoreboard [apb_scoreboard] T#188 [READ PASS] ADDR=0x0000018c RDATA=0xeb4a6175
# UVM_INFO ../seq/apb_wr_rd_seq.sv(56) @ 13545000: uvm_test_top.env.agent.sequencer@@wr_rd_seq [apb_wr_rd_seq] READ : ADDR=0x0000018c RDATA=0xeb4a6175
# UVM_INFO ../env/apb_agent/apb_monitor.sv(81) @ 13585000: uvm_test_top.env.agent.monitor [apb_monitor] Collected: T#0 | UNKNOWN_SEQ | ADDR=0x000002a8 WRITE=1 DATA=0xa6fb035b RDATA=0xeb4a6175 SLVERR=0
# UVM_INFO ../seq/apb_wr_rd_seq.sv(41) @ 13585000: uvm_test_top.env.agent.sequencer@@wr_rd_seq [apb_wr_rd_seq] WRITE: ADDR=0x000002a8 DATA=0xa6fb035b
# UVM_INFO ../env/apb_agent/apb_monitor.sv(81) @ 13645000: uvm_test_top.env.agent.monitor [apb_monitor] Collected: T#0 | UNKNOWN_SEQ | ADDR=0x000002a8 WRITE=0 DATA=0xa6fb035b RDATA=0xa6fb035b SLVERR=0
# UVM_INFO ../env/apb_scoreboard.sv(73) @ 13645000: uvm_test_top.env.scoreboard [apb_scoreboard] T#190 [READ PASS] ADDR=0x000002a8 RDATA=0xa6fb035b
# UVM_INFO ../seq/apb_wr_rd_seq.sv(56) @ 13645000: uvm_test_top.env.agent.sequencer@@wr_rd_seq [apb_wr_rd_seq] READ : ADDR=0x000002a8 RDATA=0xa6fb035b
# UVM_INFO ../env/apb_agent/apb_monitor.sv(81) @ 13695000: uvm_test_top.env.agent.monitor [apb_monitor] Collected: T#0 | UNKNOWN_SEQ | ADDR=0x000002f8 WRITE=1 DATA=0x228cb285 RDATA=0xa6fb035b SLVERR=0
# UVM_INFO ../seq/apb_wr_rd_seq.sv(41) @ 13695000: uvm_test_top.env.agent.sequencer@@wr_rd_seq [apb_wr_rd_seq] WRITE: ADDR=0x000002f8 DATA=0x228cb285
# UVM_INFO ../env/apb_agent/apb_monitor.sv(81) @ 13745000: uvm_test_top.env.agent.monitor [apb_monitor] Collected: T#0 | UNKNOWN_SEQ | ADDR=0x000002f8 WRITE=0 DATA=0x228cb285 RDATA=0x228cb285 SLVERR=0
# UVM_INFO ../env/apb_scoreboard.sv(73) @ 13745000: uvm_test_top.env.scoreboard [apb_scoreboard] T#192 [READ PASS] ADDR=0x000002f8 RDATA=0x228cb285
# UVM_INFO ../seq/apb_wr_rd_seq.sv(56) @ 13745000: uvm_test_top.env.agent.sequencer@@wr_rd_seq [apb_wr_rd_seq] READ : ADDR=0x000002f8 RDATA=0x228cb285
# UVM_INFO ../env/apb_agent/apb_monitor.sv(81) @ 13785000: uvm_test_top.env.agent.monitor [apb_monitor] Collected: T#0 | UNKNOWN_SEQ | ADDR=0x00000430 WRITE=1 DATA=0x6a9dd5dd RDATA=0xdeadbeef SLVERR=1
# UVM_WARNING ../env/apb_scoreboard.sv(51) @ 13785000: uvm_test_top.env.scoreboard [apb_scoreboard] T#193 [SLVERR] ADDR=0x00000430
# UVM_INFO ../seq/apb_wr_rd_seq.sv(41) @ 13785000: uvm_test_top.env.agent.sequencer@@wr_rd_seq [apb_wr_rd_seq] WRITE: ADDR=0x00000430 DATA=0x6a9dd5dd
# UVM_INFO ../env/apb_agent/apb_monitor.sv(81) @ 13855000: uvm_test_top.env.agent.monitor [apb_monitor] Collected: T#0 | UNKNOWN_SEQ | ADDR=0x00000430 WRITE=0 DATA=0xdeadbeef RDATA=0xdeadbeef SLVERR=1
# UVM_WARNING ../env/apb_scoreboard.sv(51) @ 13855000: uvm_test_top.env.scoreboard [apb_scoreboard] T#194 [SLVERR] ADDR=0x00000430
# UVM_INFO ../seq/apb_wr_rd_seq.sv(56) @ 13855000: uvm_test_top.env.agent.sequencer@@wr_rd_seq [apb_wr_rd_seq] READ : ADDR=0x00000430 RDATA=0xdeadbeef
# UVM_INFO ../env/apb_agent/apb_monitor.sv(81) @ 13905000: uvm_test_top.env.agent.monitor [apb_monitor] Collected: T#0 | UNKNOWN_SEQ | ADDR=0x0000011c WRITE=1 DATA=0x9ddd9a8e RDATA=0xdeadbeef SLVERR=0
# UVM_INFO ../seq/apb_wr_rd_seq.sv(41) @ 13905000: uvm_test_top.env.agent.sequencer@@wr_rd_seq [apb_wr_rd_seq] WRITE: ADDR=0x0000011c DATA=0x9ddd9a8e
# UVM_INFO ../env/apb_agent/apb_monitor.sv(81) @ 13945000: uvm_test_top.env.agent.monitor [apb_monitor] Collected: T#0 | UNKNOWN_SEQ | ADDR=0x0000011c WRITE=0 DATA=0x9ddd9a8e RDATA=0x9ddd9a8e SLVERR=0
# UVM_INFO ../env/apb_scoreboard.sv(73) @ 13945000: uvm_test_top.env.scoreboard [apb_scoreboard] T#196 [READ PASS] ADDR=0x0000011c RDATA=0x9ddd9a8e
# UVM_INFO ../seq/apb_wr_rd_seq.sv(56) @ 13945000: uvm_test_top.env.agent.sequencer@@wr_rd_seq [apb_wr_rd_seq] READ : ADDR=0x0000011c RDATA=0x9ddd9a8e
# UVM_INFO ../env/apb_agent/apb_monitor.sv(81) @ 13985000: uvm_test_top.env.agent.monitor [apb_monitor] Collected: T#0 | UNKNOWN_SEQ | ADDR=0x00000458 WRITE=1 DATA=0x1024fd37 RDATA=0xdeadbeef SLVERR=1
# UVM_WARNING ../env/apb_scoreboard.sv(51) @ 13985000: uvm_test_top.env.scoreboard [apb_scoreboard] T#197 [SLVERR] ADDR=0x00000458
# UVM_INFO ../seq/apb_wr_rd_seq.sv(41) @ 13985000: uvm_test_top.env.agent.sequencer@@wr_rd_seq [apb_wr_rd_seq] WRITE: ADDR=0x00000458 DATA=0x1024fd37
# UVM_INFO ../env/apb_agent/apb_monitor.sv(81) @ 14045000: uvm_test_top.env.agent.monitor [apb_monitor] Collected: T#0 | UNKNOWN_SEQ | ADDR=0x00000458 WRITE=0 DATA=0xdeadbeef RDATA=0xdeadbeef SLVERR=1
# UVM_WARNING ../env/apb_scoreboard.sv(51) @ 14045000: uvm_test_top.env.scoreboard [apb_scoreboard] T#198 [SLVERR] ADDR=0x00000458
# UVM_INFO ../seq/apb_wr_rd_seq.sv(56) @ 14045000: uvm_test_top.env.agent.sequencer@@wr_rd_seq [apb_wr_rd_seq] READ : ADDR=0x00000458 RDATA=0xdeadbeef
# UVM_INFO ../env/apb_agent/apb_monitor.sv(81) @ 14115000: uvm_test_top.env.agent.monitor [apb_monitor] Collected: T#0 | UNKNOWN_SEQ | ADDR=0x00000354 WRITE=1 DATA=0xe6886200 RDATA=0xdeadbeef SLVERR=0
# UVM_INFO ../seq/apb_wr_rd_seq.sv(41) @ 14115000: uvm_test_top.env.agent.sequencer@@wr_rd_seq [apb_wr_rd_seq] WRITE: ADDR=0x00000354 DATA=0xe6886200
# UVM_INFO ../env/apb_agent/apb_monitor.sv(81) @ 14215000: uvm_test_top.env.agent.monitor [apb_monitor] Collected: T#0 | UNKNOWN_SEQ | ADDR=0x00000354 WRITE=0 DATA=0xe6886200 RDATA=0xe6886200 SLVERR=0
# UVM_INFO ../env/apb_scoreboard.sv(73) @ 14215000: uvm_test_top.env.scoreboard [apb_scoreboard] T#200 [READ PASS] ADDR=0x00000354 RDATA=0xe6886200
# UVM_INFO ../seq/apb_wr_rd_seq.sv(56) @ 14215000: uvm_test_top.env.agent.sequencer@@wr_rd_seq [apb_wr_rd_seq] READ : ADDR=0x00000354 RDATA=0xe6886200
# UVM_INFO ../env/apb_agent/apb_monitor.sv(81) @ 14285000: uvm_test_top.env.agent.monitor [apb_monitor] Collected: T#0 | UNKNOWN_SEQ | ADDR=0x000002e4 WRITE=1 DATA=0x7cc6ed99 RDATA=0xe6886200 SLVERR=0
# UVM_INFO ../seq/apb_wr_rd_seq.sv(41) @ 14285000: uvm_test_top.env.agent.sequencer@@wr_rd_seq [apb_wr_rd_seq] WRITE: ADDR=0x000002e4 DATA=0x7cc6ed99
# UVM_INFO ../env/apb_agent/apb_monitor.sv(81) @ 14365000: uvm_test_top.env.agent.monitor [apb_monitor] Collected: T#0 | UNKNOWN_SEQ | ADDR=0x000002e4 WRITE=0 DATA=0x7cc6ed99 RDATA=0x7cc6ed99 SLVERR=0
# UVM_INFO ../env/apb_scoreboard.sv(73) @ 14365000: uvm_test_top.env.scoreboard [apb_scoreboard] T#202 [READ PASS] ADDR=0x000002e4 RDATA=0x7cc6ed99
# UVM_INFO ../seq/apb_wr_rd_seq.sv(56) @ 14365000: uvm_test_top.env.agent.sequencer@@wr_rd_seq [apb_wr_rd_seq] READ : ADDR=0x000002e4 RDATA=0x7cc6ed99
# UVM_INFO ../env/apb_agent/apb_monitor.sv(81) @ 14455000: uvm_test_top.env.agent.monitor [apb_monitor] Collected: T#0 | UNKNOWN_SEQ | ADDR=0x000001d8 WRITE=1 DATA=0x8ce8db7a RDATA=0x7cc6ed99 SLVERR=0
# UVM_INFO ../seq/apb_wr_rd_seq.sv(41) @ 14455000: uvm_test_top.env.agent.sequencer@@wr_rd_seq [apb_wr_rd_seq] WRITE: ADDR=0x000001d8 DATA=0x8ce8db7a
# UVM_INFO ../env/apb_agent/apb_monitor.sv(81) @ 14555000: uvm_test_top.env.agent.monitor [apb_monitor] Collected: T#0 | UNKNOWN_SEQ | ADDR=0x000001d8 WRITE=0 DATA=0x8ce8db7a RDATA=0x8ce8db7a SLVERR=0
# UVM_INFO ../env/apb_scoreboard.sv(73) @ 14555000: uvm_test_top.env.scoreboard [apb_scoreboard] T#204 [READ PASS] ADDR=0x000001d8 RDATA=0x8ce8db7a
# UVM_INFO ../seq/apb_wr_rd_seq.sv(56) @ 14555000: uvm_test_top.env.agent.sequencer@@wr_rd_seq [apb_wr_rd_seq] READ : ADDR=0x000001d8 RDATA=0x8ce8db7a
# UVM_INFO ../env/apb_agent/apb_monitor.sv(81) @ 14645000: uvm_test_top.env.agent.monitor [apb_monitor] Collected: T#0 | UNKNOWN_SEQ | ADDR=0x0000027c WRITE=1 DATA=0xcd5d46dc RDATA=0x8ce8db7a SLVERR=0
# UVM_INFO ../seq/apb_wr_rd_seq.sv(41) @ 14645000: uvm_test_top.env.agent.sequencer@@wr_rd_seq [apb_wr_rd_seq] WRITE: ADDR=0x0000027c DATA=0xcd5d46dc
# UVM_INFO ../env/apb_agent/apb_monitor.sv(81) @ 14685000: uvm_test_top.env.agent.monitor [apb_monitor] Collected: T#0 | UNKNOWN_SEQ | ADDR=0x0000027c WRITE=0 DATA=0xcd5d46dc RDATA=0xcd5d46dc SLVERR=0
# UVM_INFO ../env/apb_scoreboard.sv(73) @ 14685000: uvm_test_top.env.scoreboard [apb_scoreboard] T#206 [READ PASS] ADDR=0x0000027c RDATA=0xcd5d46dc
# UVM_INFO ../seq/apb_wr_rd_seq.sv(56) @ 14685000: uvm_test_top.env.agent.sequencer@@wr_rd_seq [apb_wr_rd_seq] READ : ADDR=0x0000027c RDATA=0xcd5d46dc
# UVM_INFO ../env/apb_agent/apb_monitor.sv(81) @ 14795000: uvm_test_top.env.agent.monitor [apb_monitor] Collected: T#0 | UNKNOWN_SEQ | ADDR=0x000004b8 WRITE=1 DATA=0x43957533 RDATA=0xdeadbeef SLVERR=1
# UVM_WARNING ../env/apb_scoreboard.sv(51) @ 14795000: uvm_test_top.env.scoreboard [apb_scoreboard] T#207 [SLVERR] ADDR=0x000004b8
# UVM_INFO ../seq/apb_wr_rd_seq.sv(41) @ 14795000: uvm_test_top.env.agent.sequencer@@wr_rd_seq [apb_wr_rd_seq] WRITE: ADDR=0x000004b8 DATA=0x43957533
# UVM_INFO ../env/apb_agent/apb_monitor.sv(81) @ 14905000: uvm_test_top.env.agent.monitor [apb_monitor] Collected: T#0 | UNKNOWN_SEQ | ADDR=0x000004b8 WRITE=0 DATA=0xdeadbeef RDATA=0xdeadbeef SLVERR=1
# UVM_WARNING ../env/apb_scoreboard.sv(51) @ 14905000: uvm_test_top.env.scoreboard [apb_scoreboard] T#208 [SLVERR] ADDR=0x000004b8
# UVM_INFO ../seq/apb_wr_rd_seq.sv(56) @ 14905000: uvm_test_top.env.agent.sequencer@@wr_rd_seq [apb_wr_rd_seq] READ : ADDR=0x000004b8 RDATA=0xdeadbeef
# UVM_INFO ../env/apb_agent/apb_monitor.sv(81) @ 15005000: uvm_test_top.env.agent.monitor [apb_monitor] Collected: T#0 | UNKNOWN_SEQ | ADDR=0x000004cc WRITE=1 DATA=0x85fd3bd3 RDATA=0xdeadbeef SLVERR=1
# UVM_WARNING ../env/apb_scoreboard.sv(51) @ 15005000: uvm_test_top.env.scoreboard [apb_scoreboard] T#209 [SLVERR] ADDR=0x000004cc
# UVM_INFO ../seq/apb_wr_rd_seq.sv(41) @ 15005000: uvm_test_top.env.agent.sequencer@@wr_rd_seq [apb_wr_rd_seq] WRITE: ADDR=0x000004cc DATA=0x85fd3bd3
# UVM_INFO ../env/apb_agent/apb_monitor.sv(81) @ 15095000: uvm_test_top.env.agent.monitor [apb_monitor] Collected: T#0 | UNKNOWN_SEQ | ADDR=0x000004cc WRITE=0 DATA=0xdeadbeef RDATA=0xdeadbeef SLVERR=1
# UVM_WARNING ../env/apb_scoreboard.sv(51) @ 15095000: uvm_test_top.env.scoreboard [apb_scoreboard] T#210 [SLVERR] ADDR=0x000004cc
# UVM_INFO ../seq/apb_wr_rd_seq.sv(56) @ 15095000: uvm_test_top.env.agent.sequencer@@wr_rd_seq [apb_wr_rd_seq] READ : ADDR=0x000004cc RDATA=0xdeadbeef
# UVM_INFO ../env/apb_agent/apb_monitor.sv(81) @ 15175000: uvm_test_top.env.agent.monitor [apb_monitor] Collected: T#0 | UNKNOWN_SEQ | ADDR=0x0000014c WRITE=1 DATA=0x57f9cd49 RDATA=0xdeadbeef SLVERR=0
# UVM_INFO ../seq/apb_wr_rd_seq.sv(41) @ 15175000: uvm_test_top.env.agent.sequencer@@wr_rd_seq [apb_wr_rd_seq] WRITE: ADDR=0x0000014c DATA=0x57f9cd49
# UVM_INFO ../env/apb_agent/apb_monitor.sv(81) @ 15285000: uvm_test_top.env.agent.monitor [apb_monitor] Collected: T#0 | UNKNOWN_SEQ | ADDR=0x0000014c WRITE=0 DATA=0x57f9cd49 RDATA=0x57f9cd49 SLVERR=0
# UVM_INFO ../env/apb_scoreboard.sv(73) @ 15285000: uvm_test_top.env.scoreboard [apb_scoreboard] T#212 [READ PASS] ADDR=0x0000014c RDATA=0x57f9cd49
# UVM_INFO ../seq/apb_wr_rd_seq.sv(56) @ 15285000: uvm_test_top.env.agent.sequencer@@wr_rd_seq [apb_wr_rd_seq] READ : ADDR=0x0000014c RDATA=0x57f9cd49
# UVM_INFO ../env/apb_agent/apb_monitor.sv(81) @ 15325000: uvm_test_top.env.agent.monitor [apb_monitor] Collected: T#0 | UNKNOWN_SEQ | ADDR=0x0000039c WRITE=1 DATA=0x14cd6f09 RDATA=0x57f9cd49 SLVERR=0
# UVM_INFO ../seq/apb_wr_rd_seq.sv(41) @ 15325000: uvm_test_top.env.agent.sequencer@@wr_rd_seq [apb_wr_rd_seq] WRITE: ADDR=0x0000039c DATA=0x14cd6f09
# UVM_INFO ../env/apb_agent/apb_monitor.sv(81) @ 15395000: uvm_test_top.env.agent.monitor [apb_monitor] Collected: T#0 | UNKNOWN_SEQ | ADDR=0x0000039c WRITE=0 DATA=0x14cd6f09 RDATA=0x14cd6f09 SLVERR=0
# UVM_INFO ../env/apb_scoreboard.sv(73) @ 15395000: uvm_test_top.env.scoreboard [apb_scoreboard] T#214 [READ PASS] ADDR=0x0000039c RDATA=0x14cd6f09
# UVM_INFO ../seq/apb_wr_rd_seq.sv(56) @ 15395000: uvm_test_top.env.agent.sequencer@@wr_rd_seq [apb_wr_rd_seq] READ : ADDR=0x0000039c RDATA=0x14cd6f09
# UVM_INFO ../env/apb_agent/apb_monitor.sv(81) @ 15475000: uvm_test_top.env.agent.monitor [apb_monitor] Collected: T#0 | UNKNOWN_SEQ | ADDR=0x000003c0 WRITE=1 DATA=0xeea473d6 RDATA=0x14cd6f09 SLVERR=0
# UVM_INFO ../seq/apb_wr_rd_seq.sv(41) @ 15475000: uvm_test_top.env.agent.sequencer@@wr_rd_seq [apb_wr_rd_seq] WRITE: ADDR=0x000003c0 DATA=0xeea473d6
# UVM_INFO ../env/apb_agent/apb_monitor.sv(81) @ 15575000: uvm_test_top.env.agent.monitor [apb_monitor] Collected: T#0 | UNKNOWN_SEQ | ADDR=0x000003c0 WRITE=0 DATA=0xeea473d6 RDATA=0xeea473d6 SLVERR=0
# UVM_INFO ../env/apb_scoreboard.sv(73) @ 15575000: uvm_test_top.env.scoreboard [apb_scoreboard] T#216 [READ PASS] ADDR=0x000003c0 RDATA=0xeea473d6
# UVM_INFO ../seq/apb_wr_rd_seq.sv(56) @ 15575000: uvm_test_top.env.agent.sequencer@@wr_rd_seq [apb_wr_rd_seq] READ : ADDR=0x000003c0 RDATA=0xeea473d6
# UVM_INFO ../env/apb_agent/apb_monitor.sv(81) @ 15675000: uvm_test_top.env.agent.monitor [apb_monitor] Collected: T#0 | UNKNOWN_SEQ | ADDR=0x000002b0 WRITE=1 DATA=0x62497965 RDATA=0xeea473d6 SLVERR=0
# UVM_INFO ../seq/apb_wr_rd_seq.sv(41) @ 15675000: uvm_test_top.env.agent.sequencer@@wr_rd_seq [apb_wr_rd_seq] WRITE: ADDR=0x000002b0 DATA=0x62497965
# UVM_INFO ../env/apb_agent/apb_monitor.sv(81) @ 15785000: uvm_test_top.env.agent.monitor [apb_monitor] Collected: T#0 | UNKNOWN_SEQ | ADDR=0x000002b0 WRITE=0 DATA=0x62497965 RDATA=0x62497965 SLVERR=0
# UVM_INFO ../env/apb_scoreboard.sv(73) @ 15785000: uvm_test_top.env.scoreboard [apb_scoreboard] T#218 [READ PASS] ADDR=0x000002b0 RDATA=0x62497965
# UVM_INFO ../seq/apb_wr_rd_seq.sv(56) @ 15785000: uvm_test_top.env.agent.sequencer@@wr_rd_seq [apb_wr_rd_seq] READ : ADDR=0x000002b0 RDATA=0x62497965
# UVM_INFO ../env/apb_agent/apb_monitor.sv(81) @ 15825000: uvm_test_top.env.agent.monitor [apb_monitor] Collected: T#0 | UNKNOWN_SEQ | ADDR=0x000003cc WRITE=1 DATA=0x1b665256 RDATA=0x62497965 SLVERR=0
# UVM_INFO ../seq/apb_wr_rd_seq.sv(41) @ 15825000: uvm_test_top.env.agent.sequencer@@wr_rd_seq [apb_wr_rd_seq] WRITE: ADDR=0x000003cc DATA=0x1b665256
# UVM_INFO ../env/apb_agent/apb_monitor.sv(81) @ 15885000: uvm_test_top.env.agent.monitor [apb_monitor] Collected: T#0 | UNKNOWN_SEQ | ADDR=0x000003cc WRITE=0 DATA=0x1b665256 RDATA=0x1b665256 SLVERR=0
# UVM_INFO ../env/apb_scoreboard.sv(73) @ 15885000: uvm_test_top.env.scoreboard [apb_scoreboard] T#220 [READ PASS] ADDR=0x000003cc RDATA=0x1b665256
# UVM_INFO ../seq/apb_wr_rd_seq.sv(56) @ 15885000: uvm_test_top.env.agent.sequencer@@wr_rd_seq [apb_wr_rd_seq] READ : ADDR=0x000003cc RDATA=0x1b665256
# UVM_INFO ../env/apb_agent/apb_monitor.sv(81) @ 15945000: uvm_test_top.env.agent.monitor [apb_monitor] Collected: T#0 | UNKNOWN_SEQ | ADDR=0x00000130 WRITE=1 DATA=0xd892722b RDATA=0x1b665256 SLVERR=0
# UVM_INFO ../seq/apb_wr_rd_seq.sv(41) @ 15945000: uvm_test_top.env.agent.sequencer@@wr_rd_seq [apb_wr_rd_seq] WRITE: ADDR=0x00000130 DATA=0xd892722b
# UVM_INFO ../env/apb_agent/apb_monitor.sv(81) @ 16025000: uvm_test_top.env.agent.monitor [apb_monitor] Collected: T#0 | UNKNOWN_SEQ | ADDR=0x00000130 WRITE=0 DATA=0xd892722b RDATA=0xd892722b SLVERR=0
# UVM_INFO ../env/apb_scoreboard.sv(73) @ 16025000: uvm_test_top.env.scoreboard [apb_scoreboard] T#222 [READ PASS] ADDR=0x00000130 RDATA=0xd892722b
# UVM_INFO ../seq/apb_wr_rd_seq.sv(56) @ 16025000: uvm_test_top.env.agent.sequencer@@wr_rd_seq [apb_wr_rd_seq] READ : ADDR=0x00000130 RDATA=0xd892722b
