# vsim -c tb_top -do "run -all; quit -f" 
# Start time: 10:23:58 on May 15,2026
# ** Note: (vsim-3813) Design is being optimized due to module recompilation...
# //  Questa Sim-64
# //  Version 10.6b linux_x86_64 May 25 2017
# //
# //  Copyright 1991-2017 Mentor Graphics Corporation
# //  All Rights Reserved.
# //
# //  QuestaSim and its associated documentation contain trade
# //  secrets and commercial or financial information that are the property of
# //  Mentor Graphics Corporation and are privileged, confidential,
# //  and exempt from disclosure under the Freedom of Information Act,
# //  5 U.S.C. Section 552. Furthermore, this information
# //  is prohibited from disclosure under the Trade Secrets Act,
# //  18 U.S.C. Section 1905.
# //
# Loading sv_std.std
# Loading work.apb_if(fast)
# Loading mtiUvm.uvm_pkg
# Loading work.apb_pkg(fast)
# Loading work.apb_if_sv_unit(fast)
# Loading work.tb_top(fast)
# Loading work.apb_if(fast)
# Loading work.apb_sram(fast)
# Loading mtiUvm.questa_uvm_pkg(fast)
# Loading /cadtools/mentor/Questa_10.6b/questasim/uvm-1.1d/linux_x86_64/uvm_dpi.so
# run -all
# ----------------------------------------------------------------
# UVM-1.1d
# (C) 2007-2013 Mentor Graphics Corporation
# (C) 2007-2013 Cadence Design Systems, Inc.
# (C) 2006-2013 Synopsys, Inc.
# (C) 2011-2013 Cypress Semiconductor Corp.
# ----------------------------------------------------------------
# 
#   ***********       IMPORTANT RELEASE NOTES         ************
# 
#   You are using a version of the UVM library that has been compiled
#   with `UVM_NO_DEPRECATED undefined.
#   See http://www.eda.org/svdb/view.php?id=3313 for more details.
# 
#   You are using a version of the UVM library that has been compiled
#   with `UVM_OBJECT_MUST_HAVE_CONSTRUCTOR undefined.
#   See http://www.eda.org/svdb/view.php?id=3770 for more details.
# 
#       (Specify +UVM_NO_RELNOTES to turn off this notice)
# 
# UVM_INFO verilog_src/questa_uvm_pkg-1.2/src/questa_uvm_pkg.sv(215) @ 0: reporter [Questa UVM] QUESTA_UVM-1.2.3
# UVM_INFO verilog_src/questa_uvm_pkg-1.2/src/questa_uvm_pkg.sv(217) @ 0: reporter [Questa UVM]  questa_uvm::init(+struct)
# UVM_INFO ../tb/tb_top.sv(48) @ 0: reporter [TB_TOP] Starting APB UVM Testbench
# UVM_INFO @ 0: reporter [RNTST] Running test apb_base_test...
# UVM_INFO ../test/apb_base_test.sv(34) @ 0: uvm_test_top [apb_base_test] Build phase completed
# UVM_INFO ../env/apb_env.sv(36) @ 0: uvm_test_top.env [apb_env] Build phase completed
# UVM_INFO ../env/apb_agent/apb_agent.sv(43) @ 0: uvm_test_top.env.agent [AGT] No is_active config, defaulting to UVM_ACTIVE
# UVM_INFO ../env/apb_env.sv(47) @ 0: uvm_test_top.env [apb_env] Connect phase completed - Monitor connected to Scoreboard
# UVM_INFO ../env/apb_agent/apb_agent.sv(72) @ 0: uvm_test_top.env.agent [apb_agent] Agent Mode:  ACTIVE
# UVM_INFO ../test/apb_base_test.sv(41) @ 0: uvm_test_top [apb_base_test] ==============START APB TEST =================
# UVM_INFO ../env/apb_agent/apb_monitor.sv(45) @ 35000: uvm_test_top.env.agent.monitor [apb_monitor] Monitor started after reset
# UVM_INFO ../env/apb_agent/apb_monitor.sv(81) @ 135000: uvm_test_top.env.agent.monitor [apb_monitor] Collected: T#0 | UNKNOWN_SEQ | ADDR=0x000002d0 WRITE=1 DATA=0x339f0009 RDATA=0x00000000 SLVERR=0
# UVM_INFO ../seq/apb_write_seq.sv(34) @ 135000: uvm_test_top.env.agent.sequencer@@write_seq [apb_write_seq] TASK WRITE: Sent Write: ADDR = 0x000002d0, DATA = 0x339f0009
# UVM_INFO ../env/apb_agent/apb_monitor.sv(81) @ 175000: uvm_test_top.env.agent.monitor [apb_monitor] Collected: T#0 | UNKNOWN_SEQ | ADDR=0x000003c0 WRITE=1 DATA=0x75a75a7f RDATA=0x00000000 SLVERR=0
# UVM_INFO ../seq/apb_write_seq.sv(34) @ 175000: uvm_test_top.env.agent.sequencer@@write_seq [apb_write_seq] TASK WRITE: Sent Write: ADDR = 0x000003c0, DATA = 0x75a75a7f
# UVM_INFO ../env/apb_agent/apb_monitor.sv(81) @ 215000: uvm_test_top.env.agent.monitor [apb_monitor] Collected: T#0 | UNKNOWN_SEQ | ADDR=0x0000005c WRITE=1 DATA=0x444da393 RDATA=0x00000000 SLVERR=0
# UVM_INFO ../seq/apb_write_seq.sv(34) @ 215000: uvm_test_top.env.agent.sequencer@@write_seq [apb_write_seq] TASK WRITE: Sent Write: ADDR = 0x0000005c, DATA = 0x444da393
# UVM_INFO ../env/apb_agent/apb_monitor.sv(81) @ 325000: uvm_test_top.env.agent.monitor [apb_monitor] Collected: T#0 | UNKNOWN_SEQ | ADDR=0x000001c4 WRITE=1 DATA=0xe81fe2f0 RDATA=0x00000000 SLVERR=0
# UVM_INFO ../seq/apb_write_seq.sv(34) @ 325000: uvm_test_top.env.agent.sequencer@@write_seq [apb_write_seq] TASK WRITE: Sent Write: ADDR = 0x000001c4, DATA = 0xe81fe2f0
# UVM_INFO ../env/apb_agent/apb_monitor.sv(81) @ 425000: uvm_test_top.env.agent.monitor [apb_monitor] Collected: T#0 | UNKNOWN_SEQ | ADDR=0x00000080 WRITE=1 DATA=0xd2302f95 RDATA=0x00000000 SLVERR=0
# UVM_INFO ../seq/apb_write_seq.sv(34) @ 425000: uvm_test_top.env.agent.sequencer@@write_seq [apb_write_seq] TASK WRITE: Sent Write: ADDR = 0x00000080, DATA = 0xd2302f95
# UVM_INFO ../env/apb_agent/apb_monitor.sv(81) @ 485000: uvm_test_top.env.agent.monitor [apb_monitor] Collected: T#0 | UNKNOWN_SEQ | ADDR=0x000002c8 WRITE=1 DATA=0xde63b8e2 RDATA=0x00000000 SLVERR=0
# UVM_INFO ../seq/apb_write_seq.sv(34) @ 485000: uvm_test_top.env.agent.sequencer@@write_seq [apb_write_seq] TASK WRITE: Sent Write: ADDR = 0x000002c8, DATA = 0xde63b8e2
# UVM_INFO ../env/apb_agent/apb_monitor.sv(81) @ 535000: uvm_test_top.env.agent.monitor [apb_monitor] Collected: T#0 | UNKNOWN_SEQ | ADDR=0x00000030 WRITE=1 DATA=0x489475be RDATA=0x00000000 SLVERR=0
# UVM_INFO ../seq/apb_write_seq.sv(34) @ 535000: uvm_test_top.env.agent.sequencer@@write_seq [apb_write_seq] TASK WRITE: Sent Write: ADDR = 0x00000030, DATA = 0x489475be
# UVM_INFO ../env/apb_agent/apb_monitor.sv(81) @ 615000: uvm_test_top.env.agent.monitor [apb_monitor] Collected: T#0 | UNKNOWN_SEQ | ADDR=0x0000000c WRITE=1 DATA=0x6308461d RDATA=0x00000000 SLVERR=0
# UVM_INFO ../seq/apb_write_seq.sv(34) @ 615000: uvm_test_top.env.agent.sequencer@@write_seq [apb_write_seq] TASK WRITE: Sent Write: ADDR = 0x0000000c, DATA = 0x6308461d
# UVM_INFO ../env/apb_agent/apb_monitor.sv(81) @ 685000: uvm_test_top.env.agent.monitor [apb_monitor] Collected: T#0 | UNKNOWN_SEQ | ADDR=0x0000003c WRITE=1 DATA=0x49709113 RDATA=0x00000000 SLVERR=0
# UVM_INFO ../seq/apb_write_seq.sv(34) @ 685000: uvm_test_top.env.agent.sequencer@@write_seq [apb_write_seq] TASK WRITE: Sent Write: ADDR = 0x0000003c, DATA = 0x49709113
# UVM_INFO ../env/apb_agent/apb_monitor.sv(81) @ 725000: uvm_test_top.env.agent.monitor [apb_monitor] Collected: T#0 | UNKNOWN_SEQ | ADDR=0x000001a8 WRITE=1 DATA=0xeb7683bb RDATA=0x00000000 SLVERR=0
# UVM_INFO ../seq/apb_write_seq.sv(34) @ 725000: uvm_test_top.env.agent.sequencer@@write_seq [apb_write_seq] TASK WRITE: Sent Write: ADDR = 0x000001a8, DATA = 0xeb7683bb
# UVM_INFO ../env/apb_agent/apb_monitor.sv(81) @ 785000: uvm_test_top.env.agent.monitor [apb_monitor] Collected: T#0 | UNKNOWN_SEQ | ADDR=0x0000005c WRITE=1 DATA=0xb909731c RDATA=0x00000000 SLVERR=0
# UVM_INFO ../seq/apb_write_seq.sv(34) @ 785000: uvm_test_top.env.agent.sequencer@@write_seq [apb_write_seq] TASK WRITE: Sent Write: ADDR = 0x0000005c, DATA = 0xb909731c
# UVM_INFO ../env/apb_agent/apb_monitor.sv(81) @ 845000: uvm_test_top.env.agent.monitor [apb_monitor] Collected: T#0 | UNKNOWN_SEQ | ADDR=0x000003f0 WRITE=1 DATA=0x47c0ca67 RDATA=0x00000000 SLVERR=0
# UVM_INFO ../seq/apb_write_seq.sv(34) @ 845000: uvm_test_top.env.agent.sequencer@@write_seq [apb_write_seq] TASK WRITE: Sent Write: ADDR = 0x000003f0, DATA = 0x47c0ca67
# UVM_INFO ../env/apb_agent/apb_monitor.sv(81) @ 905000: uvm_test_top.env.agent.monitor [apb_monitor] Collected: T#0 | UNKNOWN_SEQ | ADDR=0x000003c0 WRITE=1 DATA=0xa42408e4 RDATA=0x00000000 SLVERR=0
# UVM_INFO ../seq/apb_write_seq.sv(34) @ 905000: uvm_test_top.env.agent.sequencer@@write_seq [apb_write_seq] TASK WRITE: Sent Write: ADDR = 0x000003c0, DATA = 0xa42408e4
# UVM_INFO ../env/apb_agent/apb_monitor.sv(81) @ 955000: uvm_test_top.env.agent.monitor [apb_monitor] Collected: T#0 | UNKNOWN_SEQ | ADDR=0x000001c4 WRITE=1 DATA=0x86fbff3b RDATA=0x00000000 SLVERR=0
# UVM_INFO ../seq/apb_write_seq.sv(34) @ 955000: uvm_test_top.env.agent.sequencer@@write_seq [apb_write_seq] TASK WRITE: Sent Write: ADDR = 0x000001c4, DATA = 0x86fbff3b
# UVM_INFO ../env/apb_agent/apb_monitor.sv(81) @ 995000: uvm_test_top.env.agent.monitor [apb_monitor] Collected: T#0 | UNKNOWN_SEQ | ADDR=0x00000034 WRITE=1 DATA=0x206e6267 RDATA=0x00000000 SLVERR=0
# UVM_INFO ../seq/apb_write_seq.sv(34) @ 995000: uvm_test_top.env.agent.sequencer@@write_seq [apb_write_seq] TASK WRITE: Sent Write: ADDR = 0x00000034, DATA = 0x206e6267
# UVM_INFO ../env/apb_agent/apb_monitor.sv(81) @ 1085000: uvm_test_top.env.agent.monitor [apb_monitor] Collected: T#0 | UNKNOWN_SEQ | ADDR=0x000003b8 WRITE=1 DATA=0xc2d15aac RDATA=0x00000000 SLVERR=0
# UVM_INFO ../seq/apb_write_seq.sv(34) @ 1085000: uvm_test_top.env.agent.sequencer@@write_seq [apb_write_seq] TASK WRITE: Sent Write: ADDR = 0x000003b8, DATA = 0xc2d15aac
# UVM_INFO ../env/apb_agent/apb_monitor.sv(81) @ 1125000: uvm_test_top.env.agent.monitor [apb_monitor] Collected: T#0 | UNKNOWN_SEQ | ADDR=0x00000298 WRITE=1 DATA=0xad0bcb59 RDATA=0x00000000 SLVERR=0
# UVM_INFO ../seq/apb_write_seq.sv(34) @ 1125000: uvm_test_top.env.agent.sequencer@@write_seq [apb_write_seq] TASK WRITE: Sent Write: ADDR = 0x00000298, DATA = 0xad0bcb59
# UVM_INFO ../env/apb_agent/apb_monitor.sv(81) @ 1215000: uvm_test_top.env.agent.monitor [apb_monitor] Collected: T#0 | UNKNOWN_SEQ | ADDR=0x00000254 WRITE=1 DATA=0x9b9a5af9 RDATA=0x00000000 SLVERR=0
# UVM_INFO ../seq/apb_write_seq.sv(34) @ 1215000: uvm_test_top.env.agent.sequencer@@write_seq [apb_write_seq] TASK WRITE: Sent Write: ADDR = 0x00000254, DATA = 0x9b9a5af9
# UVM_INFO ../env/apb_agent/apb_monitor.sv(81) @ 1285000: uvm_test_top.env.agent.monitor [apb_monitor] Collected: T#0 | UNKNOWN_SEQ | ADDR=0x00000354 WRITE=1 DATA=0x5cc11002 RDATA=0x00000000 SLVERR=0
# UVM_INFO ../seq/apb_write_seq.sv(34) @ 1285000: uvm_test_top.env.agent.sequencer@@write_seq [apb_write_seq] TASK WRITE: Sent Write: ADDR = 0x00000354, DATA = 0x5cc11002
# UVM_INFO ../env/apb_agent/apb_monitor.sv(81) @ 1365000: uvm_test_top.env.agent.monitor [apb_monitor] Collected: T#0 | UNKNOWN_SEQ | ADDR=0x00000190 WRITE=1 DATA=0xf82b2652 RDATA=0x00000000 SLVERR=0
# UVM_INFO ../seq/apb_write_seq.sv(34) @ 1365000: uvm_test_top.env.agent.sequencer@@write_seq [apb_write_seq] TASK WRITE: Sent Write: ADDR = 0x00000190, DATA = 0xf82b2652
# UVM_INFO ../env/apb_agent/apb_monitor.sv(81) @ 1415000: uvm_test_top.env.agent.monitor [apb_monitor] Collected: T#0 | UNKNOWN_SEQ | ADDR=0x000003ac WRITE=0 DATA=0x00000000 RDATA=0x00000000 SLVERR=0
# UVM_INFO ../env/apb_scoreboard.sv(73) @ 1415000: uvm_test_top.env.scoreboard [apb_scoreboard] T#0 [READ PASS] ADDR=0x000003ac RDATA=0x00000000
# UVM_INFO ../seq/apb_read_seq.sv(38) @ 1415000: uvm_test_top.env.agent.sequencer@@read_seq [apb_read_seq] TASK READ DATA : Sent Read: ADDR=0x000003ac
# UVM_INFO ../env/apb_agent/apb_monitor.sv(81) @ 1455000: uvm_test_top.env.agent.monitor [apb_monitor] Collected: T#0 | UNKNOWN_SEQ | ADDR=0x000003a4 WRITE=0 DATA=0x00000000 RDATA=0x00000000 SLVERR=0
# UVM_INFO ../env/apb_scoreboard.sv(73) @ 1455000: uvm_test_top.env.scoreboard [apb_scoreboard] T#0 [READ PASS] ADDR=0x000003a4 RDATA=0x00000000
# UVM_INFO ../seq/apb_read_seq.sv(38) @ 1455000: uvm_test_top.env.agent.sequencer@@read_seq [apb_read_seq] TASK READ DATA : Sent Read: ADDR=0x000003a4
# UVM_INFO ../env/apb_agent/apb_monitor.sv(81) @ 1505000: uvm_test_top.env.agent.monitor [apb_monitor] Collected: T#0 | UNKNOWN_SEQ | ADDR=0x00000040 WRITE=0 DATA=0x00000000 RDATA=0x00000000 SLVERR=0
# UVM_INFO ../env/apb_scoreboard.sv(73) @ 1505000: uvm_test_top.env.scoreboard [apb_scoreboard] T#0 [READ PASS] ADDR=0x00000040 RDATA=0x00000000
# UVM_INFO ../seq/apb_read_seq.sv(38) @ 1505000: uvm_test_top.env.agent.sequencer@@read_seq [apb_read_seq] TASK READ DATA : Sent Read: ADDR=0x00000040
# UVM_INFO ../env/apb_agent/apb_monitor.sv(81) @ 1595000: uvm_test_top.env.agent.monitor [apb_monitor] Collected: T#0 | UNKNOWN_SEQ | ADDR=0x00000328 WRITE=0 DATA=0x00000000 RDATA=0x00000000 SLVERR=0
# UVM_INFO ../env/apb_scoreboard.sv(73) @ 1595000: uvm_test_top.env.scoreboard [apb_scoreboard] T#0 [READ PASS] ADDR=0x00000328 RDATA=0x00000000
# UVM_INFO ../seq/apb_read_seq.sv(38) @ 1595000: uvm_test_top.env.agent.sequencer@@read_seq [apb_read_seq] TASK READ DATA : Sent Read: ADDR=0x00000328
# UVM_INFO ../env/apb_agent/apb_monitor.sv(81) @ 1635000: uvm_test_top.env.agent.monitor [apb_monitor] Collected: T#0 | UNKNOWN_SEQ | ADDR=0x000000c8 WRITE=0 DATA=0x00000000 RDATA=0x00000000 SLVERR=0
# UVM_INFO ../env/apb_scoreboard.sv(73) @ 1635000: uvm_test_top.env.scoreboard [apb_scoreboard] T#0 [READ PASS] ADDR=0x000000c8 RDATA=0x00000000
# UVM_INFO ../seq/apb_read_seq.sv(38) @ 1635000: uvm_test_top.env.agent.sequencer@@read_seq [apb_read_seq] TASK READ DATA : Sent Read: ADDR=0x000000c8
# UVM_INFO ../env/apb_agent/apb_monitor.sv(81) @ 1695000: uvm_test_top.env.agent.monitor [apb_monitor] Collected: T#0 | UNKNOWN_SEQ | ADDR=0x0000024c WRITE=0 DATA=0x00000000 RDATA=0x00000000 SLVERR=0
# UVM_INFO ../env/apb_scoreboard.sv(73) @ 1695000: uvm_test_top.env.scoreboard [apb_scoreboard] T#0 [READ PASS] ADDR=0x0000024c RDATA=0x00000000
# UVM_INFO ../seq/apb_read_seq.sv(38) @ 1695000: uvm_test_top.env.agent.sequencer@@read_seq [apb_read_seq] TASK READ DATA : Sent Read: ADDR=0x0000024c
# UVM_INFO ../env/apb_agent/apb_monitor.sv(81) @ 1735000: uvm_test_top.env.agent.monitor [apb_monitor] Collected: T#0 | UNKNOWN_SEQ | ADDR=0x0000033c WRITE=0 DATA=0x00000000 RDATA=0x00000000 SLVERR=0
# UVM_INFO ../env/apb_scoreboard.sv(73) @ 1735000: uvm_test_top.env.scoreboard [apb_scoreboard] T#0 [READ PASS] ADDR=0x0000033c RDATA=0x00000000
# UVM_INFO ../seq/apb_read_seq.sv(38) @ 1735000: uvm_test_top.env.agent.sequencer@@read_seq [apb_read_seq] TASK READ DATA : Sent Read: ADDR=0x0000033c
# UVM_INFO ../env/apb_agent/apb_monitor.sv(81) @ 1785000: uvm_test_top.env.agent.monitor [apb_monitor] Collected: T#0 | UNKNOWN_SEQ | ADDR=0x00000050 WRITE=0 DATA=0x00000000 RDATA=0x00000000 SLVERR=0
# UVM_INFO ../env/apb_scoreboard.sv(73) @ 1785000: uvm_test_top.env.scoreboard [apb_scoreboard] T#0 [READ PASS] ADDR=0x00000050 RDATA=0x00000000
# UVM_INFO ../seq/apb_read_seq.sv(38) @ 1785000: uvm_test_top.env.agent.sequencer@@read_seq [apb_read_seq] TASK READ DATA : Sent Read: ADDR=0x00000050
# UVM_INFO ../env/apb_agent/apb_monitor.sv(81) @ 1875000: uvm_test_top.env.agent.monitor [apb_monitor] Collected: T#0 | UNKNOWN_SEQ | ADDR=0x0000016c WRITE=0 DATA=0x00000000 RDATA=0x00000000 SLVERR=0
# UVM_INFO ../env/apb_scoreboard.sv(73) @ 1875000: uvm_test_top.env.scoreboard [apb_scoreboard] T#0 [READ PASS] ADDR=0x0000016c RDATA=0x00000000
# UVM_INFO ../seq/apb_read_seq.sv(38) @ 1875000: uvm_test_top.env.agent.sequencer@@read_seq [apb_read_seq] TASK READ DATA : Sent Read: ADDR=0x0000016c
# UVM_INFO ../env/apb_agent/apb_monitor.sv(81) @ 1985000: uvm_test_top.env.agent.monitor [apb_monitor] Collected: T#0 | UNKNOWN_SEQ | ADDR=0x00000064 WRITE=0 DATA=0x00000000 RDATA=0x00000000 SLVERR=0
# UVM_INFO ../env/apb_scoreboard.sv(73) @ 1985000: uvm_test_top.env.scoreboard [apb_scoreboard] T#0 [READ PASS] ADDR=0x00000064 RDATA=0x00000000
# UVM_INFO ../seq/apb_read_seq.sv(38) @ 1985000: uvm_test_top.env.agent.sequencer@@read_seq [apb_read_seq] TASK READ DATA : Sent Read: ADDR=0x00000064
# UVM_INFO ../env/apb_agent/apb_monitor.sv(81) @ 2055000: uvm_test_top.env.agent.monitor [apb_monitor] Collected: T#0 | UNKNOWN_SEQ | ADDR=0x00000238 WRITE=0 DATA=0x00000000 RDATA=0x00000000 SLVERR=0
# UVM_INFO ../env/apb_scoreboard.sv(73) @ 2055000: uvm_test_top.env.scoreboard [apb_scoreboard] T#0 [READ PASS] ADDR=0x00000238 RDATA=0x00000000
# UVM_INFO ../seq/apb_read_seq.sv(38) @ 2055000: uvm_test_top.env.agent.sequencer@@read_seq [apb_read_seq] TASK READ DATA : Sent Read: ADDR=0x00000238
# UVM_INFO ../env/apb_agent/apb_monitor.sv(81) @ 2135000: uvm_test_top.env.agent.monitor [apb_monitor] Collected: T#0 | UNKNOWN_SEQ | ADDR=0x0000034c WRITE=0 DATA=0x00000000 RDATA=0x00000000 SLVERR=0
# UVM_INFO ../env/apb_scoreboard.sv(73) @ 2135000: uvm_test_top.env.scoreboard [apb_scoreboard] T#0 [READ PASS] ADDR=0x0000034c RDATA=0x00000000
# UVM_INFO ../seq/apb_read_seq.sv(38) @ 2135000: uvm_test_top.env.agent.sequencer@@read_seq [apb_read_seq] TASK READ DATA : Sent Read: ADDR=0x0000034c
# UVM_INFO ../env/apb_agent/apb_monitor.sv(81) @ 2175000: uvm_test_top.env.agent.monitor [apb_monitor] Collected: T#0 | UNKNOWN_SEQ | ADDR=0x00000020 WRITE=0 DATA=0x00000000 RDATA=0x00000000 SLVERR=0
# UVM_INFO ../env/apb_scoreboard.sv(73) @ 2175000: uvm_test_top.env.scoreboard [apb_scoreboard] T#0 [READ PASS] ADDR=0x00000020 RDATA=0x00000000
# UVM_INFO ../seq/apb_read_seq.sv(38) @ 2175000: uvm_test_top.env.agent.sequencer@@read_seq [apb_read_seq] TASK READ DATA : Sent Read: ADDR=0x00000020
# UVM_INFO ../env/apb_agent/apb_monitor.sv(81) @ 2275000: uvm_test_top.env.agent.monitor [apb_monitor] Collected: T#0 | UNKNOWN_SEQ | ADDR=0x000000fc WRITE=0 DATA=0x00000000 RDATA=0x00000000 SLVERR=0
# UVM_INFO ../env/apb_scoreboard.sv(73) @ 2275000: uvm_test_top.env.scoreboard [apb_scoreboard] T#0 [READ PASS] ADDR=0x000000fc RDATA=0x00000000
# UVM_INFO ../seq/apb_read_seq.sv(38) @ 2275000: uvm_test_top.env.agent.sequencer@@read_seq [apb_read_seq] TASK READ DATA : Sent Read: ADDR=0x000000fc
# UVM_INFO ../env/apb_agent/apb_monitor.sv(81) @ 2365000: uvm_test_top.env.agent.monitor [apb_monitor] Collected: T#0 | UNKNOWN_SEQ | ADDR=0x00000380 WRITE=0 DATA=0x00000000 RDATA=0x00000000 SLVERR=0
# UVM_INFO ../env/apb_scoreboard.sv(73) @ 2365000: uvm_test_top.env.scoreboard [apb_scoreboard] T#0 [READ PASS] ADDR=0x00000380 RDATA=0x00000000
# UVM_INFO ../seq/apb_read_seq.sv(38) @ 2365000: uvm_test_top.env.agent.sequencer@@read_seq [apb_read_seq] TASK READ DATA : Sent Read: ADDR=0x00000380
# UVM_INFO ../env/apb_agent/apb_monitor.sv(81) @ 2405000: uvm_test_top.env.agent.monitor [apb_monitor] Collected: T#0 | UNKNOWN_SEQ | ADDR=0x0000025c WRITE=0 DATA=0x00000000 RDATA=0x00000000 SLVERR=0
# UVM_INFO ../env/apb_scoreboard.sv(73) @ 2405000: uvm_test_top.env.scoreboard [apb_scoreboard] T#0 [READ PASS] ADDR=0x0000025c RDATA=0x00000000
# UVM_INFO ../seq/apb_read_seq.sv(38) @ 2405000: uvm_test_top.env.agent.sequencer@@read_seq [apb_read_seq] TASK READ DATA : Sent Read: ADDR=0x0000025c
# UVM_INFO ../env/apb_agent/apb_monitor.sv(81) @ 2485000: uvm_test_top.env.agent.monitor [apb_monitor] Collected: T#0 | UNKNOWN_SEQ | ADDR=0x00000298 WRITE=0 DATA=0xad0bcb59 RDATA=0xad0bcb59 SLVERR=0
# UVM_INFO ../env/apb_scoreboard.sv(73) @ 2485000: uvm_test_top.env.scoreboard [apb_scoreboard] T#0 [READ PASS] ADDR=0x00000298 RDATA=0xad0bcb59
# UVM_INFO ../seq/apb_read_seq.sv(38) @ 2485000: uvm_test_top.env.agent.sequencer@@read_seq [apb_read_seq] TASK READ DATA : Sent Read: ADDR=0x00000298
# UVM_INFO ../env/apb_agent/apb_monitor.sv(81) @ 2565000: uvm_test_top.env.agent.monitor [apb_monitor] Collected: T#0 | UNKNOWN_SEQ | ADDR=0x0000021c WRITE=0 DATA=0x00000000 RDATA=0x00000000 SLVERR=0
# UVM_INFO ../env/apb_scoreboard.sv(73) @ 2565000: uvm_test_top.env.scoreboard [apb_scoreboard] T#0 [READ PASS] ADDR=0x0000021c RDATA=0x00000000
# UVM_INFO ../seq/apb_read_seq.sv(38) @ 2565000: uvm_test_top.env.agent.sequencer@@read_seq [apb_read_seq] TASK READ DATA : Sent Read: ADDR=0x0000021c
# UVM_INFO ../env/apb_agent/apb_monitor.sv(81) @ 2635000: uvm_test_top.env.agent.monitor [apb_monitor] Collected: T#0 | UNKNOWN_SEQ | ADDR=0x00000024 WRITE=0 DATA=0x00000000 RDATA=0x00000000 SLVERR=0
# UVM_INFO ../env/apb_scoreboard.sv(73) @ 2635000: uvm_test_top.env.scoreboard [apb_scoreboard] T#0 [READ PASS] ADDR=0x00000024 RDATA=0x00000000
# UVM_INFO ../seq/apb_read_seq.sv(38) @ 2635000: uvm_test_top.env.agent.sequencer@@read_seq [apb_read_seq] TASK READ DATA : Sent Read: ADDR=0x00000024
# UVM_INFO ../env/apb_agent/apb_monitor.sv(81) @ 2675000: uvm_test_top.env.agent.monitor [apb_monitor] Collected: T#0 | UNKNOWN_SEQ | ADDR=0x00000338 WRITE=0 DATA=0x00000000 RDATA=0x00000000 SLVERR=0
# UVM_INFO ../env/apb_scoreboard.sv(73) @ 2675000: uvm_test_top.env.scoreboard [apb_scoreboard] T#0 [READ PASS] ADDR=0x00000338 RDATA=0x00000000
# UVM_INFO ../seq/apb_read_seq.sv(38) @ 2675000: uvm_test_top.env.agent.sequencer@@read_seq [apb_read_seq] TASK READ DATA : Sent Read: ADDR=0x00000338
# UVM_INFO ../env/apb_agent/apb_monitor.sv(81) @ 2715000: uvm_test_top.env.agent.monitor [apb_monitor] Collected: T#0 | UNKNOWN_SEQ | ADDR=0x00000140 WRITE=1 DATA=0xfbe926df RDATA=0x00000000 SLVERR=0
# UVM_INFO ../seq/apb_wr_rd_seq.sv(41) @ 2715000: uvm_test_top.env.agent.sequencer@@wr_rd_seq [apb_wr_rd_seq] WRITE: ADDR=0x00000140 DATA=0xfbe926df
# UVM_INFO ../env/apb_agent/apb_monitor.sv(81) @ 2805000: uvm_test_top.env.agent.monitor [apb_monitor] Collected: T#0 | UNKNOWN_SEQ | ADDR=0x00000140 WRITE=0 DATA=0xfbe926df RDATA=0xfbe926df SLVERR=0
# UVM_INFO ../env/apb_scoreboard.sv(73) @ 2805000: uvm_test_top.env.scoreboard [apb_scoreboard] T#0 [READ PASS] ADDR=0x00000140 RDATA=0xfbe926df
# UVM_INFO ../seq/apb_wr_rd_seq.sv(56) @ 2805000: uvm_test_top.env.agent.sequencer@@wr_rd_seq [apb_wr_rd_seq] READ : ADDR=0x00000140 RDATA=0xfbe926df
# UVM_INFO ../env/apb_agent/apb_monitor.sv(81) @ 2905000: uvm_test_top.env.agent.monitor [apb_monitor] Collected: T#0 | UNKNOWN_SEQ | ADDR=0x000002c8 WRITE=1 DATA=0x1ece0459 RDATA=0xfbe926df SLVERR=0
# UVM_INFO ../seq/apb_wr_rd_seq.sv(41) @ 2905000: uvm_test_top.env.agent.sequencer@@wr_rd_seq [apb_wr_rd_seq] WRITE: ADDR=0x000002c8 DATA=0x1ece0459
# UVM_INFO ../env/apb_agent/apb_monitor.sv(81) @ 2945000: uvm_test_top.env.agent.monitor [apb_monitor] Collected: T#0 | UNKNOWN_SEQ | ADDR=0x000002c8 WRITE=0 DATA=0x1ece0459 RDATA=0x1ece0459 SLVERR=0
# UVM_INFO ../env/apb_scoreboard.sv(73) @ 2945000: uvm_test_top.env.scoreboard [apb_scoreboard] T#0 [READ PASS] ADDR=0x000002c8 RDATA=0x1ece0459
# UVM_INFO ../seq/apb_wr_rd_seq.sv(56) @ 2945000: uvm_test_top.env.agent.sequencer@@wr_rd_seq [apb_wr_rd_seq] READ : ADDR=0x000002c8 RDATA=0x1ece0459
# UVM_INFO ../env/apb_agent/apb_monitor.sv(81) @ 3005000: uvm_test_top.env.agent.monitor [apb_monitor] Collected: T#0 | UNKNOWN_SEQ | ADDR=0x00000064 WRITE=1 DATA=0x1a9e77fa RDATA=0x1ece0459 SLVERR=0
# UVM_INFO ../seq/apb_wr_rd_seq.sv(41) @ 3005000: uvm_test_top.env.agent.sequencer@@wr_rd_seq [apb_wr_rd_seq] WRITE: ADDR=0x00000064 DATA=0x1a9e77fa
# UVM_INFO ../env/apb_agent/apb_monitor.sv(81) @ 3075000: uvm_test_top.env.agent.monitor [apb_monitor] Collected: T#0 | UNKNOWN_SEQ | ADDR=0x00000064 WRITE=0 DATA=0x1a9e77fa RDATA=0x1a9e77fa SLVERR=0
# UVM_INFO ../env/apb_scoreboard.sv(73) @ 3075000: uvm_test_top.env.scoreboard [apb_scoreboard] T#0 [READ PASS] ADDR=0x00000064 RDATA=0x1a9e77fa
# UVM_INFO ../seq/apb_wr_rd_seq.sv(56) @ 3075000: uvm_test_top.env.agent.sequencer@@wr_rd_seq [apb_wr_rd_seq] READ : ADDR=0x00000064 RDATA=0x1a9e77fa
# UVM_INFO ../env/apb_agent/apb_monitor.sv(81) @ 3145000: uvm_test_top.env.agent.monitor [apb_monitor] Collected: T#0 | UNKNOWN_SEQ | ADDR=0x0000030c WRITE=1 DATA=0x8253057f RDATA=0x1a9e77fa SLVERR=0
# UVM_INFO ../seq/apb_wr_rd_seq.sv(41) @ 3145000: uvm_test_top.env.agent.sequencer@@wr_rd_seq [apb_wr_rd_seq] WRITE: ADDR=0x0000030c DATA=0x8253057f
# UVM_INFO ../env/apb_agent/apb_monitor.sv(81) @ 3245000: uvm_test_top.env.agent.monitor [apb_monitor] Collected: T#0 | UNKNOWN_SEQ | ADDR=0x0000030c WRITE=0 DATA=0x8253057f RDATA=0x8253057f SLVERR=0
# UVM_INFO ../env/apb_scoreboard.sv(73) @ 3245000: uvm_test_top.env.scoreboard [apb_scoreboard] T#0 [READ PASS] ADDR=0x0000030c RDATA=0x8253057f
# UVM_INFO ../seq/apb_wr_rd_seq.sv(56) @ 3245000: uvm_test_top.env.agent.sequencer@@wr_rd_seq [apb_wr_rd_seq] READ : ADDR=0x0000030c RDATA=0x8253057f
# UVM_INFO ../env/apb_agent/apb_monitor.sv(81) @ 3315000: uvm_test_top.env.agent.monitor [apb_monitor] Collected: T#0 | UNKNOWN_SEQ | ADDR=0x000002a0 WRITE=1 DATA=0x661def78 RDATA=0x8253057f SLVERR=0
# UVM_INFO ../seq/apb_wr_rd_seq.sv(41) @ 3315000: uvm_test_top.env.agent.sequencer@@wr_rd_seq [apb_wr_rd_seq] WRITE: ADDR=0x000002a0 DATA=0x661def78
# UVM_INFO ../env/apb_agent/apb_monitor.sv(81) @ 3355000: uvm_test_top.env.agent.monitor [apb_monitor] Collected: T#0 | UNKNOWN_SEQ | ADDR=0x000002a0 WRITE=0 DATA=0x661def78 RDATA=0x661def78 SLVERR=0
# UVM_INFO ../env/apb_scoreboard.sv(73) @ 3355000: uvm_test_top.env.scoreboard [apb_scoreboard] T#0 [READ PASS] ADDR=0x000002a0 RDATA=0x661def78
# UVM_INFO ../seq/apb_wr_rd_seq.sv(56) @ 3355000: uvm_test_top.env.agent.sequencer@@wr_rd_seq [apb_wr_rd_seq] READ : ADDR=0x000002a0 RDATA=0x661def78
# UVM_INFO ../env/apb_agent/apb_monitor.sv(81) @ 3405000: uvm_test_top.env.agent.monitor [apb_monitor] Collected: T#0 | UNKNOWN_SEQ | ADDR=0x0000010c WRITE=1 DATA=0x194b06c6 RDATA=0x661def78 SLVERR=0
# UVM_INFO ../seq/apb_wr_rd_seq.sv(41) @ 3405000: uvm_test_top.env.agent.sequencer@@wr_rd_seq [apb_wr_rd_seq] WRITE: ADDR=0x0000010c DATA=0x194b06c6
# UVM_INFO ../env/apb_agent/apb_monitor.sv(81) @ 3495000: uvm_test_top.env.agent.monitor [apb_monitor] Collected: T#0 | UNKNOWN_SEQ | ADDR=0x0000010c WRITE=0 DATA=0x194b06c6 RDATA=0x194b06c6 SLVERR=0
# UVM_INFO ../env/apb_scoreboard.sv(73) @ 3495000: uvm_test_top.env.scoreboard [apb_scoreboard] T#0 [READ PASS] ADDR=0x0000010c RDATA=0x194b06c6
# UVM_INFO ../seq/apb_wr_rd_seq.sv(56) @ 3495000: uvm_test_top.env.agent.sequencer@@wr_rd_seq [apb_wr_rd_seq] READ : ADDR=0x0000010c RDATA=0x194b06c6
# UVM_INFO ../env/apb_agent/apb_monitor.sv(81) @ 3585000: uvm_test_top.env.agent.monitor [apb_monitor] Collected: T#0 | UNKNOWN_SEQ | ADDR=0x000003dc WRITE=1 DATA=0xcc6c05ab RDATA=0x194b06c6 SLVERR=0
# UVM_INFO ../seq/apb_wr_rd_seq.sv(41) @ 3585000: uvm_test_top.env.agent.sequencer@@wr_rd_seq [apb_wr_rd_seq] WRITE: ADDR=0x000003dc DATA=0xcc6c05ab
# UVM_INFO ../env/apb_agent/apb_monitor.sv(81) @ 3625000: uvm_test_top.env.agent.monitor [apb_monitor] Collected: T#0 | UNKNOWN_SEQ | ADDR=0x000003dc WRITE=0 DATA=0xcc6c05ab RDATA=0xcc6c05ab SLVERR=0
# UVM_INFO ../env/apb_scoreboard.sv(73) @ 3625000: uvm_test_top.env.scoreboard [apb_scoreboard] T#0 [READ PASS] ADDR=0x000003dc RDATA=0xcc6c05ab
# UVM_INFO ../seq/apb_wr_rd_seq.sv(56) @ 3625000: uvm_test_top.env.agent.sequencer@@wr_rd_seq [apb_wr_rd_seq] READ : ADDR=0x000003dc RDATA=0xcc6c05ab
# UVM_INFO ../env/apb_agent/apb_monitor.sv(81) @ 3675000: uvm_test_top.env.agent.monitor [apb_monitor] Collected: T#0 | UNKNOWN_SEQ | ADDR=0x000002ac WRITE=1 DATA=0xdbf3cea6 RDATA=0xcc6c05ab SLVERR=0
# UVM_INFO ../seq/apb_wr_rd_seq.sv(41) @ 3675000: uvm_test_top.env.agent.sequencer@@wr_rd_seq [apb_wr_rd_seq] WRITE: ADDR=0x000002ac DATA=0xdbf3cea6
# UVM_INFO ../env/apb_agent/apb_monitor.sv(81) @ 3715000: uvm_test_top.env.agent.monitor [apb_monitor] Collected: T#0 | UNKNOWN_SEQ | ADDR=0x000002ac WRITE=0 DATA=0xdbf3cea6 RDATA=0xdbf3cea6 SLVERR=0
# UVM_INFO ../env/apb_scoreboard.sv(73) @ 3715000: uvm_test_top.env.scoreboard [apb_scoreboard] T#0 [READ PASS] ADDR=0x000002ac RDATA=0xdbf3cea6
# UVM_INFO ../seq/apb_wr_rd_seq.sv(56) @ 3715000: uvm_test_top.env.agent.sequencer@@wr_rd_seq [apb_wr_rd_seq] READ : ADDR=0x000002ac RDATA=0xdbf3cea6
# UVM_INFO ../env/apb_agent/apb_monitor.sv(81) @ 3805000: uvm_test_top.env.agent.monitor [apb_monitor] Collected: T#0 | UNKNOWN_SEQ | ADDR=0x00000064 WRITE=1 DATA=0x7bc94842 RDATA=0xdbf3cea6 SLVERR=0
# UVM_INFO ../seq/apb_wr_rd_seq.sv(41) @ 3805000: uvm_test_top.env.agent.sequencer@@wr_rd_seq [apb_wr_rd_seq] WRITE: ADDR=0x00000064 DATA=0x7bc94842
# UVM_INFO ../env/apb_agent/apb_monitor.sv(81) @ 3915000: uvm_test_top.env.agent.monitor [apb_monitor] Collected: T#0 | UNKNOWN_SEQ | ADDR=0x00000064 WRITE=0 DATA=0x7bc94842 RDATA=0x7bc94842 SLVERR=0
# UVM_INFO ../env/apb_scoreboard.sv(73) @ 3915000: uvm_test_top.env.scoreboard [apb_scoreboard] T#0 [READ PASS] ADDR=0x00000064 RDATA=0x7bc94842
# UVM_INFO ../seq/apb_wr_rd_seq.sv(56) @ 3915000: uvm_test_top.env.agent.sequencer@@wr_rd_seq [apb_wr_rd_seq] READ : ADDR=0x00000064 RDATA=0x7bc94842
# UVM_INFO ../env/apb_agent/apb_monitor.sv(81) @ 3955000: uvm_test_top.env.agent.monitor [apb_monitor] Collected: T#0 | UNKNOWN_SEQ | ADDR=0x00000074 WRITE=1 DATA=0x10d0b823 RDATA=0x7bc94842 SLVERR=0
# UVM_INFO ../seq/apb_wr_rd_seq.sv(41) @ 3955000: uvm_test_top.env.agent.sequencer@@wr_rd_seq [apb_wr_rd_seq] WRITE: ADDR=0x00000074 DATA=0x10d0b823
# UVM_INFO ../env/apb_agent/apb_monitor.sv(81) @ 4045000: uvm_test_top.env.agent.monitor [apb_monitor] Collected: T#0 | UNKNOWN_SEQ | ADDR=0x00000074 WRITE=0 DATA=0x10d0b823 RDATA=0x10d0b823 SLVERR=0
# UVM_INFO ../env/apb_scoreboard.sv(73) @ 4045000: uvm_test_top.env.scoreboard [apb_scoreboard] T#0 [READ PASS] ADDR=0x00000074 RDATA=0x10d0b823
# UVM_INFO ../seq/apb_wr_rd_seq.sv(56) @ 4045000: uvm_test_top.env.agent.sequencer@@wr_rd_seq [apb_wr_rd_seq] READ : ADDR=0x00000074 RDATA=0x10d0b823
# UVM_INFO ../env/apb_agent/apb_monitor.sv(81) @ 4125000: uvm_test_top.env.agent.monitor [apb_monitor] Collected: T#0 | UNKNOWN_SEQ | ADDR=0x00000298 WRITE=1 DATA=0x2b6e3fde RDATA=0x10d0b823 SLVERR=0
# UVM_INFO ../seq/apb_wr_rd_seq.sv(41) @ 4125000: uvm_test_top.env.agent.sequencer@@wr_rd_seq [apb_wr_rd_seq] WRITE: ADDR=0x00000298 DATA=0x2b6e3fde
# UVM_INFO ../env/apb_agent/apb_monitor.sv(81) @ 4235000: uvm_test_top.env.agent.monitor [apb_monitor] Collected: T#0 | UNKNOWN_SEQ | ADDR=0x00000298 WRITE=0 DATA=0x2b6e3fde RDATA=0x2b6e3fde SLVERR=0
# UVM_INFO ../env/apb_scoreboard.sv(73) @ 4235000: uvm_test_top.env.scoreboard [apb_scoreboard] T#0 [READ PASS] ADDR=0x00000298 RDATA=0x2b6e3fde
# UVM_INFO ../seq/apb_wr_rd_seq.sv(56) @ 4235000: uvm_test_top.env.agent.sequencer@@wr_rd_seq [apb_wr_rd_seq] READ : ADDR=0x00000298 RDATA=0x2b6e3fde
# UVM_INFO ../env/apb_agent/apb_monitor.sv(81) @ 4325000: uvm_test_top.env.agent.monitor [apb_monitor] Collected: T#0 | UNKNOWN_SEQ | ADDR=0x00000344 WRITE=1 DATA=0xb0a4374e RDATA=0x2b6e3fde SLVERR=0
# UVM_INFO ../seq/apb_wr_rd_seq.sv(41) @ 4325000: uvm_test_top.env.agent.sequencer@@wr_rd_seq [apb_wr_rd_seq] WRITE: ADDR=0x00000344 DATA=0xb0a4374e
# UVM_INFO ../env/apb_agent/apb_monitor.sv(81) @ 4395000: uvm_test_top.env.agent.monitor [apb_monitor] Collected: T#0 | UNKNOWN_SEQ | ADDR=0x00000344 WRITE=0 DATA=0xb0a4374e RDATA=0xb0a4374e SLVERR=0
# UVM_INFO ../env/apb_scoreboard.sv(73) @ 4395000: uvm_test_top.env.scoreboard [apb_scoreboard] T#0 [READ PASS] ADDR=0x00000344 RDATA=0xb0a4374e
# UVM_INFO ../seq/apb_wr_rd_seq.sv(56) @ 4395000: uvm_test_top.env.agent.sequencer@@wr_rd_seq [apb_wr_rd_seq] READ : ADDR=0x00000344 RDATA=0xb0a4374e
# UVM_INFO ../env/apb_agent/apb_monitor.sv(81) @ 4505000: uvm_test_top.env.agent.monitor [apb_monitor] Collected: T#0 | UNKNOWN_SEQ | ADDR=0x000001e0 WRITE=1 DATA=0x6c985566 RDATA=0xb0a4374e SLVERR=0
# UVM_INFO ../seq/apb_wr_rd_seq.sv(41) @ 4505000: uvm_test_top.env.agent.sequencer@@wr_rd_seq [apb_wr_rd_seq] WRITE: ADDR=0x000001e0 DATA=0x6c985566
# UVM_INFO ../env/apb_agent/apb_monitor.sv(81) @ 4565000: uvm_test_top.env.agent.monitor [apb_monitor] Collected: T#0 | UNKNOWN_SEQ | ADDR=0x000001e0 WRITE=0 DATA=0x6c985566 RDATA=0x6c985566 SLVERR=0
# UVM_INFO ../env/apb_scoreboard.sv(73) @ 4565000: uvm_test_top.env.scoreboard [apb_scoreboard] T#0 [READ PASS] ADDR=0x000001e0 RDATA=0x6c985566
# UVM_INFO ../seq/apb_wr_rd_seq.sv(56) @ 4565000: uvm_test_top.env.agent.sequencer@@wr_rd_seq [apb_wr_rd_seq] READ : ADDR=0x000001e0 RDATA=0x6c985566
# UVM_INFO ../env/apb_agent/apb_monitor.sv(81) @ 4675000: uvm_test_top.env.agent.monitor [apb_monitor] Collected: T#0 | UNKNOWN_SEQ | ADDR=0x000000e8 WRITE=1 DATA=0x0ea487e3 RDATA=0x6c985566 SLVERR=0
# UVM_INFO ../seq/apb_wr_rd_seq.sv(41) @ 4675000: uvm_test_top.env.agent.sequencer@@wr_rd_seq [apb_wr_rd_seq] WRITE: ADDR=0x000000e8 DATA=0x0ea487e3
# UVM_INFO ../env/apb_agent/apb_monitor.sv(81) @ 4735000: uvm_test_top.env.agent.monitor [apb_monitor] Collected: T#0 | UNKNOWN_SEQ | ADDR=0x000000e8 WRITE=0 DATA=0x0ea487e3 RDATA=0x0ea487e3 SLVERR=0
# UVM_INFO ../env/apb_scoreboard.sv(73) @ 4735000: uvm_test_top.env.scoreboard [apb_scoreboard] T#0 [READ PASS] ADDR=0x000000e8 RDATA=0x0ea487e3
# UVM_INFO ../seq/apb_wr_rd_seq.sv(56) @ 4735000: uvm_test_top.env.agent.sequencer@@wr_rd_seq [apb_wr_rd_seq] READ : ADDR=0x000000e8 RDATA=0x0ea487e3
# UVM_INFO ../env/apb_agent/apb_monitor.sv(81) @ 4775000: uvm_test_top.env.agent.monitor [apb_monitor] Collected: T#0 | UNKNOWN_SEQ | ADDR=0x00000358 WRITE=1 DATA=0xdc438cab RDATA=0x0ea487e3 SLVERR=0
# UVM_INFO ../seq/apb_wr_rd_seq.sv(41) @ 4775000: uvm_test_top.env.agent.sequencer@@wr_rd_seq [apb_wr_rd_seq] WRITE: ADDR=0x00000358 DATA=0xdc438cab
# UVM_INFO ../env/apb_agent/apb_monitor.sv(81) @ 4885000: uvm_test_top.env.agent.monitor [apb_monitor] Collected: T#0 | UNKNOWN_SEQ | ADDR=0x00000358 WRITE=0 DATA=0xdc438cab RDATA=0xdc438cab SLVERR=0
# UVM_INFO ../env/apb_scoreboard.sv(73) @ 4885000: uvm_test_top.env.scoreboard [apb_scoreboard] T#0 [READ PASS] ADDR=0x00000358 RDATA=0xdc438cab
# UVM_INFO ../seq/apb_wr_rd_seq.sv(56) @ 4885000: uvm_test_top.env.agent.sequencer@@wr_rd_seq [apb_wr_rd_seq] READ : ADDR=0x00000358 RDATA=0xdc438cab
# UVM_INFO ../env/apb_agent/apb_monitor.sv(81) @ 4935000: uvm_test_top.env.agent.monitor [apb_monitor] Collected: T#0 | UNKNOWN_SEQ | ADDR=0x00000054 WRITE=1 DATA=0xbcc1bec7 RDATA=0xdc438cab SLVERR=0
# UVM_INFO ../seq/apb_wr_rd_seq.sv(41) @ 4935000: uvm_test_top.env.agent.sequencer@@wr_rd_seq [apb_wr_rd_seq] WRITE: ADDR=0x00000054 DATA=0xbcc1bec7
# UVM_INFO ../env/apb_agent/apb_monitor.sv(81) @ 4995000: uvm_test_top.env.agent.monitor [apb_monitor] Collected: T#0 | UNKNOWN_SEQ | ADDR=0x00000054 WRITE=0 DATA=0xbcc1bec7 RDATA=0xbcc1bec7 SLVERR=0
# UVM_INFO ../env/apb_scoreboard.sv(73) @ 4995000: uvm_test_top.env.scoreboard [apb_scoreboard] T#0 [READ PASS] ADDR=0x00000054 RDATA=0xbcc1bec7
# UVM_INFO ../seq/apb_wr_rd_seq.sv(56) @ 4995000: uvm_test_top.env.agent.sequencer@@wr_rd_seq [apb_wr_rd_seq] READ : ADDR=0x00000054 RDATA=0xbcc1bec7
# UVM_INFO ../env/apb_agent/apb_monitor.sv(81) @ 5045000: uvm_test_top.env.agent.monitor [apb_monitor] Collected: T#0 | UNKNOWN_SEQ | ADDR=0x00000158 WRITE=1 DATA=0xf97072f5 RDATA=0xbcc1bec7 SLVERR=0
# UVM_INFO ../seq/apb_wr_rd_seq.sv(41) @ 5045000: uvm_test_top.env.agent.sequencer@@wr_rd_seq [apb_wr_rd_seq] WRITE: ADDR=0x00000158 DATA=0xf97072f5
# UVM_INFO ../env/apb_agent/apb_monitor.sv(81) @ 5135000: uvm_test_top.env.agent.monitor [apb_monitor] Collected: T#0 | UNKNOWN_SEQ | ADDR=0x00000158 WRITE=0 DATA=0xf97072f5 RDATA=0xf97072f5 SLVERR=0
# UVM_INFO ../env/apb_scoreboard.sv(73) @ 5135000: uvm_test_top.env.scoreboard [apb_scoreboard] T#0 [READ PASS] ADDR=0x00000158 RDATA=0xf97072f5
# UVM_INFO ../seq/apb_wr_rd_seq.sv(56) @ 5135000: uvm_test_top.env.agent.sequencer@@wr_rd_seq [apb_wr_rd_seq] READ : ADDR=0x00000158 RDATA=0xf97072f5
# UVM_INFO ../env/apb_agent/apb_monitor.sv(81) @ 5215000: uvm_test_top.env.agent.monitor [apb_monitor] Collected: T#0 | UNKNOWN_SEQ | ADDR=0x000002c0 WRITE=1 DATA=0x11bf105e RDATA=0xf97072f5 SLVERR=0
# UVM_INFO ../seq/apb_wr_rd_seq.sv(41) @ 5215000: uvm_test_top.env.agent.sequencer@@wr_rd_seq [apb_wr_rd_seq] WRITE: ADDR=0x000002c0 DATA=0x11bf105e
# UVM_INFO ../env/apb_agent/apb_monitor.sv(81) @ 5255000: uvm_test_top.env.agent.monitor [apb_monitor] Collected: T#0 | UNKNOWN_SEQ | ADDR=0x000002c0 WRITE=0 DATA=0x11bf105e RDATA=0x11bf105e SLVERR=0
# UVM_INFO ../env/apb_scoreboard.sv(73) @ 5255000: uvm_test_top.env.scoreboard [apb_scoreboard] T#0 [READ PASS] ADDR=0x000002c0 RDATA=0x11bf105e
# UVM_INFO ../seq/apb_wr_rd_seq.sv(56) @ 5255000: uvm_test_top.env.agent.sequencer@@wr_rd_seq [apb_wr_rd_seq] READ : ADDR=0x000002c0 RDATA=0x11bf105e
# UVM_INFO ../env/apb_agent/apb_monitor.sv(81) @ 5315000: uvm_test_top.env.agent.monitor [apb_monitor] Collected: T#0 | UNKNOWN_SEQ | ADDR=0x00000308 WRITE=1 DATA=0xcb6878cc RDATA=0x11bf105e SLVERR=0
# UVM_INFO ../seq/apb_wr_rd_seq.sv(41) @ 5315000: uvm_test_top.env.agent.sequencer@@wr_rd_seq [apb_wr_rd_seq] WRITE: ADDR=0x00000308 DATA=0xcb6878cc
# UVM_INFO ../env/apb_agent/apb_monitor.sv(81) @ 5355000: uvm_test_top.env.agent.monitor [apb_monitor] Collected: T#0 | UNKNOWN_SEQ | ADDR=0x00000308 WRITE=0 DATA=0xcb6878cc RDATA=0xcb6878cc SLVERR=0
# UVM_INFO ../env/apb_scoreboard.sv(73) @ 5355000: uvm_test_top.env.scoreboard [apb_scoreboard] T#0 [READ PASS] ADDR=0x00000308 RDATA=0xcb6878cc
# UVM_INFO ../seq/apb_wr_rd_seq.sv(56) @ 5355000: uvm_test_top.env.agent.sequencer@@wr_rd_seq [apb_wr_rd_seq] READ : ADDR=0x00000308 RDATA=0xcb6878cc
# UVM_INFO ../env/apb_agent/apb_monitor.sv(81) @ 5435000: uvm_test_top.env.agent.monitor [apb_monitor] Collected: T#0 | UNKNOWN_SEQ | ADDR=0x00000334 WRITE=1 DATA=0xea33c831 RDATA=0xcb6878cc SLVERR=0
# UVM_INFO ../seq/apb_wr_rd_seq.sv(41) @ 5435000: uvm_test_top.env.agent.sequencer@@wr_rd_seq [apb_wr_rd_seq] WRITE: ADDR=0x00000334 DATA=0xea33c831
# UVM_INFO ../env/apb_agent/apb_monitor.sv(81) @ 5475000: uvm_test_top.env.agent.monitor [apb_monitor] Collected: T#0 | UNKNOWN_SEQ | ADDR=0x00000334 WRITE=0 DATA=0xea33c831 RDATA=0xea33c831 SLVERR=0
# UVM_INFO ../env/apb_scoreboard.sv(73) @ 5475000: uvm_test_top.env.scoreboard [apb_scoreboard] T#0 [READ PASS] ADDR=0x00000334 RDATA=0xea33c831
# UVM_INFO ../seq/apb_wr_rd_seq.sv(56) @ 5475000: uvm_test_top.env.agent.sequencer@@wr_rd_seq [apb_wr_rd_seq] READ : ADDR=0x00000334 RDATA=0xea33c831
# UVM_INFO ../env/apb_agent/apb_monitor.sv(81) @ 5555000: uvm_test_top.env.agent.monitor [apb_monitor] Collected: T#0 | UNKNOWN_SEQ | ADDR=0x000000c8 WRITE=1 DATA=0xb9de40e7 RDATA=0xea33c831 SLVERR=0
# UVM_INFO ../seq/apb_wr_rd_seq.sv(41) @ 5555000: uvm_test_top.env.agent.sequencer@@wr_rd_seq [apb_wr_rd_seq] WRITE: ADDR=0x000000c8 DATA=0xb9de40e7
# UVM_INFO ../env/apb_agent/apb_monitor.sv(81) @ 5605000: uvm_test_top.env.agent.monitor [apb_monitor] Collected: T#0 | UNKNOWN_SEQ | ADDR=0x000000c8 WRITE=0 DATA=0xb9de40e7 RDATA=0xb9de40e7 SLVERR=0
# UVM_INFO ../env/apb_scoreboard.sv(73) @ 5605000: uvm_test_top.env.scoreboard [apb_scoreboard] T#0 [READ PASS] ADDR=0x000000c8 RDATA=0xb9de40e7
# UVM_INFO ../seq/apb_wr_rd_seq.sv(56) @ 5605000: uvm_test_top.env.agent.sequencer@@wr_rd_seq [apb_wr_rd_seq] READ : ADDR=0x000000c8 RDATA=0xb9de40e7
# UVM_INFO ../env/apb_agent/apb_monitor.sv(81) @ 5705000: uvm_test_top.env.agent.monitor [apb_monitor] Collected: T#0 | UNKNOWN_SEQ | ADDR=0x000000d8 WRITE=1 DATA=0x96177c19 RDATA=0xb9de40e7 SLVERR=0
# UVM_INFO ../seq/apb_wr_rd_seq.sv(41) @ 5705000: uvm_test_top.env.agent.sequencer@@wr_rd_seq [apb_wr_rd_seq] WRITE: ADDR=0x000000d8 DATA=0x96177c19
# UVM_INFO ../env/apb_agent/apb_monitor.sv(81) @ 5775000: uvm_test_top.env.agent.monitor [apb_monitor] Collected: T#0 | UNKNOWN_SEQ | ADDR=0x000000d8 WRITE=0 DATA=0x96177c19 RDATA=0x96177c19 SLVERR=0
# UVM_INFO ../env/apb_scoreboard.sv(73) @ 5775000: uvm_test_top.env.scoreboard [apb_scoreboard] T#0 [READ PASS] ADDR=0x000000d8 RDATA=0x96177c19
# UVM_INFO ../seq/apb_wr_rd_seq.sv(56) @ 5775000: uvm_test_top.env.agent.sequencer@@wr_rd_seq [apb_wr_rd_seq] READ : ADDR=0x000000d8 RDATA=0x96177c19
# UVM_INFO ../env/apb_agent/apb_monitor.sv(81) @ 5825000: uvm_test_top.env.agent.monitor [apb_monitor] Collected: T#0 | UNKNOWN_SEQ | ADDR=0x000001d4 WRITE=1 DATA=0x8a7875e4 RDATA=0x96177c19 SLVERR=0
# UVM_INFO ../seq/apb_wr_rd_seq.sv(41) @ 5825000: uvm_test_top.env.agent.sequencer@@wr_rd_seq [apb_wr_rd_seq] WRITE: ADDR=0x000001d4 DATA=0x8a7875e4
# UVM_INFO ../env/apb_agent/apb_monitor.sv(81) @ 5885000: uvm_test_top.env.agent.monitor [apb_monitor] Collected: T#0 | UNKNOWN_SEQ | ADDR=0x000001d4 WRITE=0 DATA=0x8a7875e4 RDATA=0x8a7875e4 SLVERR=0
# UVM_INFO ../env/apb_scoreboard.sv(73) @ 5885000: uvm_test_top.env.scoreboard [apb_scoreboard] T#0 [READ PASS] ADDR=0x000001d4 RDATA=0x8a7875e4
# UVM_INFO ../seq/apb_wr_rd_seq.sv(56) @ 5885000: uvm_test_top.env.agent.sequencer@@wr_rd_seq [apb_wr_rd_seq] READ : ADDR=0x000001d4 RDATA=0x8a7875e4
# UVM_INFO ../env/apb_agent/apb_monitor.sv(81) @ 5975000: uvm_test_top.env.agent.monitor [apb_monitor] Collected: T#0 | UNKNOWN_SEQ | ADDR=0x000001b8 WRITE=1 DATA=0xc259ecf0 RDATA=0x8a7875e4 SLVERR=0
# UVM_INFO ../seq/apb_wr_rd_seq.sv(41) @ 5975000: uvm_test_top.env.agent.sequencer@@wr_rd_seq [apb_wr_rd_seq] WRITE: ADDR=0x000001b8 DATA=0xc259ecf0
# UVM_INFO ../env/apb_agent/apb_monitor.sv(81) @ 6035000: uvm_test_top.env.agent.monitor [apb_monitor] Collected: T#0 | UNKNOWN_SEQ | ADDR=0x000001b8 WRITE=0 DATA=0xc259ecf0 RDATA=0xc259ecf0 SLVERR=0
# UVM_INFO ../env/apb_scoreboard.sv(73) @ 6035000: uvm_test_top.env.scoreboard [apb_scoreboard] T#0 [READ PASS] ADDR=0x000001b8 RDATA=0xc259ecf0
# UVM_INFO ../seq/apb_wr_rd_seq.sv(56) @ 6035000: uvm_test_top.env.agent.sequencer@@wr_rd_seq [apb_wr_rd_seq] READ : ADDR=0x000001b8 RDATA=0xc259ecf0
# UVM_INFO ../env/apb_agent/apb_monitor.sv(81) @ 6095000: uvm_test_top.env.agent.monitor [apb_monitor] Collected: T#0 | UNKNOWN_SEQ | ADDR=0x000001cc WRITE=1 DATA=0x767e86e2 RDATA=0xc259ecf0 SLVERR=0
# UVM_INFO ../seq/apb_wr_rd_seq.sv(41) @ 6095000: uvm_test_top.env.agent.sequencer@@wr_rd_seq [apb_wr_rd_seq] WRITE: ADDR=0x000001cc DATA=0x767e86e2
# UVM_INFO ../env/apb_agent/apb_monitor.sv(81) @ 6135000: uvm_test_top.env.agent.monitor [apb_monitor] Collected: T#0 | UNKNOWN_SEQ | ADDR=0x000001cc WRITE=0 DATA=0x767e86e2 RDATA=0x767e86e2 SLVERR=0
# UVM_INFO ../env/apb_scoreboard.sv(73) @ 6135000: uvm_test_top.env.scoreboard [apb_scoreboard] T#0 [READ PASS] ADDR=0x000001cc RDATA=0x767e86e2
# UVM_INFO ../seq/apb_wr_rd_seq.sv(56) @ 6135000: uvm_test_top.env.agent.sequencer@@wr_rd_seq [apb_wr_rd_seq] READ : ADDR=0x000001cc RDATA=0x767e86e2
# UVM_INFO ../env/apb_agent/apb_monitor.sv(81) @ 6205000: uvm_test_top.env.agent.monitor [apb_monitor] Collected: T#0 | UNKNOWN_SEQ | ADDR=0x00000074 WRITE=1 DATA=0x8db287da RDATA=0x767e86e2 SLVERR=0
# UVM_INFO ../seq/apb_wr_rd_seq.sv(41) @ 6205000: uvm_test_top.env.agent.sequencer@@wr_rd_seq [apb_wr_rd_seq] WRITE: ADDR=0x00000074 DATA=0x8db287da
# UVM_INFO ../env/apb_agent/apb_monitor.sv(81) @ 6295000: uvm_test_top.env.agent.monitor [apb_monitor] Collected: T#0 | UNKNOWN_SEQ | ADDR=0x00000074 WRITE=0 DATA=0x8db287da RDATA=0x8db287da SLVERR=0
# UVM_INFO ../env/apb_scoreboard.sv(73) @ 6295000: uvm_test_top.env.scoreboard [apb_scoreboard] T#0 [READ PASS] ADDR=0x00000074 RDATA=0x8db287da
# UVM_INFO ../seq/apb_wr_rd_seq.sv(56) @ 6295000: uvm_test_top.env.agent.sequencer@@wr_rd_seq [apb_wr_rd_seq] READ : ADDR=0x00000074 RDATA=0x8db287da
# UVM_INFO ../env/apb_agent/apb_monitor.sv(81) @ 6385000: uvm_test_top.env.agent.monitor [apb_monitor] Collected: T#0 | UNKNOWN_SEQ | ADDR=0x0000007c WRITE=1 DATA=0xdf282bbb RDATA=0x8db287da SLVERR=0
# UVM_INFO ../seq/apb_wr_rd_seq.sv(41) @ 6385000: uvm_test_top.env.agent.sequencer@@wr_rd_seq [apb_wr_rd_seq] WRITE: ADDR=0x0000007c DATA=0xdf282bbb
# UVM_INFO ../env/apb_agent/apb_monitor.sv(81) @ 6485000: uvm_test_top.env.agent.monitor [apb_monitor] Collected: T#0 | UNKNOWN_SEQ | ADDR=0x0000007c WRITE=0 DATA=0xdf282bbb RDATA=0xdf282bbb SLVERR=0
# UVM_INFO ../env/apb_scoreboard.sv(73) @ 6485000: uvm_test_top.env.scoreboard [apb_scoreboard] T#0 [READ PASS] ADDR=0x0000007c RDATA=0xdf282bbb
# UVM_INFO ../seq/apb_wr_rd_seq.sv(56) @ 6485000: uvm_test_top.env.agent.sequencer@@wr_rd_seq [apb_wr_rd_seq] READ : ADDR=0x0000007c RDATA=0xdf282bbb
# UVM_INFO ../env/apb_agent/apb_monitor.sv(81) @ 6545000: uvm_test_top.env.agent.monitor [apb_monitor] Collected: T#0 | UNKNOWN_SEQ | ADDR=0x00000174 WRITE=1 DATA=0x260dcde7 RDATA=0xdf282bbb SLVERR=0
# UVM_INFO ../seq/apb_wr_rd_seq.sv(41) @ 6545000: uvm_test_top.env.agent.sequencer@@wr_rd_seq [apb_wr_rd_seq] WRITE: ADDR=0x00000174 DATA=0x260dcde7
# UVM_INFO ../env/apb_agent/apb_monitor.sv(81) @ 6635000: uvm_test_top.env.agent.monitor [apb_monitor] Collected: T#0 | UNKNOWN_SEQ | ADDR=0x00000174 WRITE=0 DATA=0x260dcde7 RDATA=0x260dcde7 SLVERR=0
# UVM_INFO ../env/apb_scoreboard.sv(73) @ 6635000: uvm_test_top.env.scoreboard [apb_scoreboard] T#0 [READ PASS] ADDR=0x00000174 RDATA=0x260dcde7
# UVM_INFO ../seq/apb_wr_rd_seq.sv(56) @ 6635000: uvm_test_top.env.agent.sequencer@@wr_rd_seq [apb_wr_rd_seq] READ : ADDR=0x00000174 RDATA=0x260dcde7
# UVM_INFO ../env/apb_agent/apb_monitor.sv(81) @ 6675000: uvm_test_top.env.agent.monitor [apb_monitor] Collected: T#0 | UNKNOWN_SEQ | ADDR=0x0000034c WRITE=1 DATA=0xaa927be5 RDATA=0x260dcde7 SLVERR=0
# UVM_INFO ../seq/apb_wr_rd_seq.sv(41) @ 6675000: uvm_test_top.env.agent.sequencer@@wr_rd_seq [apb_wr_rd_seq] WRITE: ADDR=0x0000034c DATA=0xaa927be5
# UVM_INFO ../env/apb_agent/apb_monitor.sv(81) @ 6775000: uvm_test_top.env.agent.monitor [apb_monitor] Collected: T#0 | UNKNOWN_SEQ | ADDR=0x0000034c WRITE=0 DATA=0xaa927be5 RDATA=0xaa927be5 SLVERR=0
# UVM_INFO ../env/apb_scoreboard.sv(73) @ 6775000: uvm_test_top.env.scoreboard [apb_scoreboard] T#0 [READ PASS] ADDR=0x0000034c RDATA=0xaa927be5
# UVM_INFO ../seq/apb_wr_rd_seq.sv(56) @ 6775000: uvm_test_top.env.agent.sequencer@@wr_rd_seq [apb_wr_rd_seq] READ : ADDR=0x0000034c RDATA=0xaa927be5
# UVM_INFO ../env/apb_agent/apb_monitor.sv(81) @ 6875000: uvm_test_top.env.agent.monitor [apb_monitor] Collected: T#0 | UNKNOWN_SEQ | ADDR=0x000002c4 WRITE=1 DATA=0x34ab1a0d RDATA=0xaa927be5 SLVERR=0
# UVM_INFO ../seq/apb_wr_rd_seq.sv(41) @ 6875000: uvm_test_top.env.agent.sequencer@@wr_rd_seq [apb_wr_rd_seq] WRITE: ADDR=0x000002c4 DATA=0x34ab1a0d
# UVM_INFO ../env/apb_agent/apb_monitor.sv(81) @ 6955000: uvm_test_top.env.agent.monitor [apb_monitor] Collected: T#0 | UNKNOWN_SEQ | ADDR=0x000002c4 WRITE=0 DATA=0x34ab1a0d RDATA=0x34ab1a0d SLVERR=0
# UVM_INFO ../env/apb_scoreboard.sv(73) @ 6955000: uvm_test_top.env.scoreboard [apb_scoreboard] T#0 [READ PASS] ADDR=0x000002c4 RDATA=0x34ab1a0d
# UVM_INFO ../seq/apb_wr_rd_seq.sv(56) @ 6955000: uvm_test_top.env.agent.sequencer@@wr_rd_seq [apb_wr_rd_seq] READ : ADDR=0x000002c4 RDATA=0x34ab1a0d
# UVM_INFO ../env/apb_agent/apb_monitor.sv(81) @ 7045000: uvm_test_top.env.agent.monitor [apb_monitor] Collected: T#0 | UNKNOWN_SEQ | ADDR=0x000000f0 WRITE=1 DATA=0x0fca3c45 RDATA=0x34ab1a0d SLVERR=0
# UVM_INFO ../seq/apb_wr_rd_seq.sv(41) @ 7045000: uvm_test_top.env.agent.sequencer@@wr_rd_seq [apb_wr_rd_seq] WRITE: ADDR=0x000000f0 DATA=0x0fca3c45
# UVM_INFO ../env/apb_agent/apb_monitor.sv(81) @ 7085000: uvm_test_top.env.agent.monitor [apb_monitor] Collected: T#0 | UNKNOWN_SEQ | ADDR=0x000000f0 WRITE=0 DATA=0x0fca3c45 RDATA=0x0fca3c45 SLVERR=0
# UVM_INFO ../env/apb_scoreboard.sv(73) @ 7085000: uvm_test_top.env.scoreboard [apb_scoreboard] T#0 [READ PASS] ADDR=0x000000f0 RDATA=0x0fca3c45
# UVM_INFO ../seq/apb_wr_rd_seq.sv(56) @ 7085000: uvm_test_top.env.agent.sequencer@@wr_rd_seq [apb_wr_rd_seq] READ : ADDR=0x000000f0 RDATA=0x0fca3c45
# UVM_INFO ../env/apb_agent/apb_monitor.sv(81) @ 7125000: uvm_test_top.env.agent.monitor [apb_monitor] Collected: T#0 | UNKNOWN_SEQ | ADDR=0x000002f8 WRITE=1 DATA=0xc32dc2c7 RDATA=0x0fca3c45 SLVERR=0
# UVM_INFO ../seq/apb_wr_rd_seq.sv(41) @ 7125000: uvm_test_top.env.agent.sequencer@@wr_rd_seq [apb_wr_rd_seq] WRITE: ADDR=0x000002f8 DATA=0xc32dc2c7
# UVM_INFO ../env/apb_agent/apb_monitor.sv(81) @ 7215000: uvm_test_top.env.agent.monitor [apb_monitor] Collected: T#0 | UNKNOWN_SEQ | ADDR=0x000002f8 WRITE=0 DATA=0xc32dc2c7 RDATA=0xc32dc2c7 SLVERR=0
# UVM_INFO ../env/apb_scoreboard.sv(73) @ 7215000: uvm_test_top.env.scoreboard [apb_scoreboard] T#0 [READ PASS] ADDR=0x000002f8 RDATA=0xc32dc2c7
# UVM_INFO ../seq/apb_wr_rd_seq.sv(56) @ 7215000: uvm_test_top.env.agent.sequencer@@wr_rd_seq [apb_wr_rd_seq] READ : ADDR=0x000002f8 RDATA=0xc32dc2c7
# UVM_INFO ../env/apb_agent/apb_monitor.sv(81) @ 7305000: uvm_test_top.env.agent.monitor [apb_monitor] Collected: T#0 | UNKNOWN_SEQ | ADDR=0x000003f4 WRITE=1 DATA=0x6c9716a7 RDATA=0xc32dc2c7 SLVERR=0
# UVM_INFO ../seq/apb_wr_rd_seq.sv(41) @ 7305000: uvm_test_top.env.agent.sequencer@@wr_rd_seq [apb_wr_rd_seq] WRITE: ADDR=0x000003f4 DATA=0x6c9716a7
# UVM_INFO ../env/apb_agent/apb_monitor.sv(81) @ 7365000: uvm_test_top.env.agent.monitor [apb_monitor] Collected: T#0 | UNKNOWN_SEQ | ADDR=0x000003f4 WRITE=0 DATA=0x6c9716a7 RDATA=0x6c9716a7 SLVERR=0
# UVM_INFO ../env/apb_scoreboard.sv(73) @ 7365000: uvm_test_top.env.scoreboard [apb_scoreboard] T#0 [READ PASS] ADDR=0x000003f4 RDATA=0x6c9716a7
# UVM_INFO ../seq/apb_wr_rd_seq.sv(56) @ 7365000: uvm_test_top.env.agent.sequencer@@wr_rd_seq [apb_wr_rd_seq] READ : ADDR=0x000003f4 RDATA=0x6c9716a7
# UVM_INFO ../env/apb_agent/apb_monitor.sv(81) @ 7445000: uvm_test_top.env.agent.monitor [apb_monitor] Collected: T#0 | UNKNOWN_SEQ | ADDR=0x000000a0 WRITE=1 DATA=0xf1575b6c RDATA=0x6c9716a7 SLVERR=0
# UVM_INFO ../seq/apb_wr_rd_seq.sv(41) @ 7445000: uvm_test_top.env.agent.sequencer@@wr_rd_seq [apb_wr_rd_seq] WRITE: ADDR=0x000000a0 DATA=0xf1575b6c
# UVM_INFO ../env/apb_agent/apb_monitor.sv(81) @ 7525000: uvm_test_top.env.agent.monitor [apb_monitor] Collected: T#0 | UNKNOWN_SEQ | ADDR=0x000000a0 WRITE=0 DATA=0xf1575b6c RDATA=0xf1575b6c SLVERR=0
# UVM_INFO ../env/apb_scoreboard.sv(73) @ 7525000: uvm_test_top.env.scoreboard [apb_scoreboard] T#0 [READ PASS] ADDR=0x000000a0 RDATA=0xf1575b6c
# UVM_INFO ../seq/apb_wr_rd_seq.sv(56) @ 7525000: uvm_test_top.env.agent.sequencer@@wr_rd_seq [apb_wr_rd_seq] READ : ADDR=0x000000a0 RDATA=0xf1575b6c
# UVM_INFO ../env/apb_agent/apb_monitor.sv(81) @ 7605000: uvm_test_top.env.agent.monitor [apb_monitor] Collected: T#0 | UNKNOWN_SEQ | ADDR=0x000003cc WRITE=1 DATA=0x6625851f RDATA=0xf1575b6c SLVERR=0
# UVM_INFO ../seq/apb_wr_rd_seq.sv(41) @ 7605000: uvm_test_top.env.agent.sequencer@@wr_rd_seq [apb_wr_rd_seq] WRITE: ADDR=0x000003cc DATA=0x6625851f
# UVM_INFO ../env/apb_agent/apb_monitor.sv(81) @ 7645000: uvm_test_top.env.agent.monitor [apb_monitor] Collected: T#0 | UNKNOWN_SEQ | ADDR=0x000003cc WRITE=0 DATA=0x6625851f RDATA=0x6625851f SLVERR=0
# UVM_INFO ../env/apb_scoreboard.sv(73) @ 7645000: uvm_test_top.env.scoreboard [apb_scoreboard] T#0 [READ PASS] ADDR=0x000003cc RDATA=0x6625851f
# UVM_INFO ../seq/apb_wr_rd_seq.sv(56) @ 7645000: uvm_test_top.env.agent.sequencer@@wr_rd_seq [apb_wr_rd_seq] READ : ADDR=0x000003cc RDATA=0x6625851f
# UVM_INFO ../env/apb_agent/apb_monitor.sv(81) @ 7765000: uvm_test_top.env.agent.monitor [apb_monitor] Collected: T#0 | UNKNOWN_SEQ | ADDR=0x000002e8 WRITE=1 DATA=0x8a7c4547 RDATA=0x6625851f SLVERR=0
# UVM_INFO ../seq/apb_wr_rd_seq.sv(41) @ 7765000: uvm_test_top.env.agent.sequencer@@wr_rd_seq [apb_wr_rd_seq] WRITE: ADDR=0x000002e8 DATA=0x8a7c4547
# UVM_INFO ../env/apb_agent/apb_monitor.sv(81) @ 7875000: uvm_test_top.env.agent.monitor [apb_monitor] Collected: T#0 | UNKNOWN_SEQ | ADDR=0x000002e8 WRITE=0 DATA=0x8a7c4547 RDATA=0x8a7c4547 SLVERR=0
# UVM_INFO ../env/apb_scoreboard.sv(73) @ 7875000: uvm_test_top.env.scoreboard [apb_scoreboard] T#0 [READ PASS] ADDR=0x000002e8 RDATA=0x8a7c4547
# UVM_INFO ../seq/apb_wr_rd_seq.sv(56) @ 7875000: uvm_test_top.env.agent.sequencer@@wr_rd_seq [apb_wr_rd_seq] READ : ADDR=0x000002e8 RDATA=0x8a7c4547
# UVM_INFO ../env/apb_agent/apb_monitor.sv(81) @ 7985000: uvm_test_top.env.agent.monitor [apb_monitor] Collected: T#0 | UNKNOWN_SEQ | ADDR=0x000001c4 WRITE=1 DATA=0x3d5fdf36 RDATA=0x8a7c4547 SLVERR=0
# UVM_INFO ../seq/apb_wr_rd_seq.sv(41) @ 7985000: uvm_test_top.env.agent.sequencer@@wr_rd_seq [apb_wr_rd_seq] WRITE: ADDR=0x000001c4 DATA=0x3d5fdf36
# UVM_INFO ../env/apb_agent/apb_monitor.sv(81) @ 8085000: uvm_test_top.env.agent.monitor [apb_monitor] Collected: T#0 | UNKNOWN_SEQ | ADDR=0x000001c4 WRITE=0 DATA=0x3d5fdf36 RDATA=0x3d5fdf36 SLVERR=0
# UVM_INFO ../env/apb_scoreboard.sv(73) @ 8085000: uvm_test_top.env.scoreboard [apb_scoreboard] T#0 [READ PASS] ADDR=0x000001c4 RDATA=0x3d5fdf36
# UVM_INFO ../seq/apb_wr_rd_seq.sv(56) @ 8085000: uvm_test_top.env.agent.sequencer@@wr_rd_seq [apb_wr_rd_seq] READ : ADDR=0x000001c4 RDATA=0x3d5fdf36
# UVM_INFO ../env/apb_agent/apb_monitor.sv(81) @ 8195000: uvm_test_top.env.agent.monitor [apb_monitor] Collected: T#0 | UNKNOWN_SEQ | ADDR=0x00000028 WRITE=1 DATA=0x03f3e4d8 RDATA=0x3d5fdf36 SLVERR=0
# UVM_INFO ../seq/apb_wr_rd_seq.sv(41) @ 8195000: uvm_test_top.env.agent.sequencer@@wr_rd_seq [apb_wr_rd_seq] WRITE: ADDR=0x00000028 DATA=0x03f3e4d8
# UVM_INFO ../env/apb_agent/apb_monitor.sv(81) @ 8305000: uvm_test_top.env.agent.monitor [apb_monitor] Collected: T#0 | UNKNOWN_SEQ | ADDR=0x00000028 WRITE=0 DATA=0x03f3e4d8 RDATA=0x03f3e4d8 SLVERR=0
# UVM_INFO ../env/apb_scoreboard.sv(73) @ 8305000: uvm_test_top.env.scoreboard [apb_scoreboard] T#0 [READ PASS] ADDR=0x00000028 RDATA=0x03f3e4d8
# UVM_INFO ../seq/apb_wr_rd_seq.sv(56) @ 8305000: uvm_test_top.env.agent.sequencer@@wr_rd_seq [apb_wr_rd_seq] READ : ADDR=0x00000028 RDATA=0x03f3e4d8
# UVM_INFO ../env/apb_agent/apb_monitor.sv(81) @ 8415000: uvm_test_top.env.agent.monitor [apb_monitor] Collected: T#0 | UNKNOWN_SEQ | ADDR=0x000000b8 WRITE=1 DATA=0x9d2db0e5 RDATA=0x03f3e4d8 SLVERR=0
# UVM_INFO ../seq/apb_wr_rd_seq.sv(41) @ 8415000: uvm_test_top.env.agent.sequencer@@wr_rd_seq [apb_wr_rd_seq] WRITE: ADDR=0x000000b8 DATA=0x9d2db0e5
# UVM_INFO ../env/apb_agent/apb_monitor.sv(81) @ 8515000: uvm_test_top.env.agent.monitor [apb_monitor] Collected: T#0 | UNKNOWN_SEQ | ADDR=0x000000b8 WRITE=0 DATA=0x9d2db0e5 RDATA=0x9d2db0e5 SLVERR=0
# UVM_INFO ../env/apb_scoreboard.sv(73) @ 8515000: uvm_test_top.env.scoreboard [apb_scoreboard] T#0 [READ PASS] ADDR=0x000000b8 RDATA=0x9d2db0e5
# UVM_INFO ../seq/apb_wr_rd_seq.sv(56) @ 8515000: uvm_test_top.env.agent.sequencer@@wr_rd_seq [apb_wr_rd_seq] READ : ADDR=0x000000b8 RDATA=0x9d2db0e5
# UVM_INFO ../env/apb_agent/apb_monitor.sv(81) @ 8595000: uvm_test_top.env.agent.monitor [apb_monitor] Collected: T#0 | UNKNOWN_SEQ | ADDR=0x00000340 WRITE=1 DATA=0x8ca7e666 RDATA=0x9d2db0e5 SLVERR=0
# UVM_INFO ../seq/apb_wr_rd_seq.sv(41) @ 8595000: uvm_test_top.env.agent.sequencer@@wr_rd_seq [apb_wr_rd_seq] WRITE: ADDR=0x00000340 DATA=0x8ca7e666
# UVM_INFO ../env/apb_agent/apb_monitor.sv(81) @ 8655000: uvm_test_top.env.agent.monitor [apb_monitor] Collected: T#0 | UNKNOWN_SEQ | ADDR=0x00000340 WRITE=0 DATA=0x8ca7e666 RDATA=0x8ca7e666 SLVERR=0
# UVM_INFO ../env/apb_scoreboard.sv(73) @ 8655000: uvm_test_top.env.scoreboard [apb_scoreboard] T#0 [READ PASS] ADDR=0x00000340 RDATA=0x8ca7e666
# UVM_INFO ../seq/apb_wr_rd_seq.sv(56) @ 8655000: uvm_test_top.env.agent.sequencer@@wr_rd_seq [apb_wr_rd_seq] READ : ADDR=0x00000340 RDATA=0x8ca7e666
# UVM_INFO ../env/apb_agent/apb_monitor.sv(81) @ 8695000: uvm_test_top.env.agent.monitor [apb_monitor] Collected: T#0 | UNKNOWN_SEQ | ADDR=0x00000318 WRITE=1 DATA=0xaaf68faf RDATA=0x8ca7e666 SLVERR=0
# UVM_INFO ../seq/apb_wr_rd_seq.sv(41) @ 8695000: uvm_test_top.env.agent.sequencer@@wr_rd_seq [apb_wr_rd_seq] WRITE: ADDR=0x00000318 DATA=0xaaf68faf
# UVM_INFO ../env/apb_agent/apb_monitor.sv(81) @ 8805000: uvm_test_top.env.agent.monitor [apb_monitor] Collected: T#0 | UNKNOWN_SEQ | ADDR=0x00000318 WRITE=0 DATA=0xaaf68faf RDATA=0xaaf68faf SLVERR=0
# UVM_INFO ../env/apb_scoreboard.sv(73) @ 8805000: uvm_test_top.env.scoreboard [apb_scoreboard] T#0 [READ PASS] ADDR=0x00000318 RDATA=0xaaf68faf
# UVM_INFO ../seq/apb_wr_rd_seq.sv(56) @ 8805000: uvm_test_top.env.agent.sequencer@@wr_rd_seq [apb_wr_rd_seq] READ : ADDR=0x00000318 RDATA=0xaaf68faf
# UVM_INFO ../env/apb_agent/apb_monitor.sv(81) @ 8865000: uvm_test_top.env.agent.monitor [apb_monitor] Collected: T#0 | UNKNOWN_SEQ | ADDR=0x00000008 WRITE=1 DATA=0x2617f100 RDATA=0xaaf68faf SLVERR=0
# UVM_INFO ../seq/apb_wr_rd_seq.sv(41) @ 8865000: uvm_test_top.env.agent.sequencer@@wr_rd_seq [apb_wr_rd_seq] WRITE: ADDR=0x00000008 DATA=0x2617f100
# UVM_INFO ../env/apb_agent/apb_monitor.sv(81) @ 8975000: uvm_test_top.env.agent.monitor [apb_monitor] Collected: T#0 | UNKNOWN_SEQ | ADDR=0x00000008 WRITE=0 DATA=0x2617f100 RDATA=0x2617f100 SLVERR=0
# UVM_INFO ../env/apb_scoreboard.sv(73) @ 8975000: uvm_test_top.env.scoreboard [apb_scoreboard] T#0 [READ PASS] ADDR=0x00000008 RDATA=0x2617f100
# UVM_INFO ../seq/apb_wr_rd_seq.sv(56) @ 8975000: uvm_test_top.env.agent.sequencer@@wr_rd_seq [apb_wr_rd_seq] READ : ADDR=0x00000008 RDATA=0x2617f100
# UVM_INFO ../env/apb_agent/apb_monitor.sv(81) @ 9065000: uvm_test_top.env.agent.monitor [apb_monitor] Collected: T#0 | UNKNOWN_SEQ | ADDR=0x00000178 WRITE=1 DATA=0xef5f5f73 RDATA=0x2617f100 SLVERR=0
# UVM_INFO ../seq/apb_wr_rd_seq.sv(41) @ 9065000: uvm_test_top.env.agent.sequencer@@wr_rd_seq [apb_wr_rd_seq] WRITE: ADDR=0x00000178 DATA=0xef5f5f73
# UVM_INFO ../env/apb_agent/apb_monitor.sv(81) @ 9145000: uvm_test_top.env.agent.monitor [apb_monitor] Collected: T#0 | UNKNOWN_SEQ | ADDR=0x00000178 WRITE=0 DATA=0xef5f5f73 RDATA=0xef5f5f73 SLVERR=0
# UVM_INFO ../env/apb_scoreboard.sv(73) @ 9145000: uvm_test_top.env.scoreboard [apb_scoreboard] T#0 [READ PASS] ADDR=0x00000178 RDATA=0xef5f5f73
# UVM_INFO ../seq/apb_wr_rd_seq.sv(56) @ 9145000: uvm_test_top.env.agent.sequencer@@wr_rd_seq [apb_wr_rd_seq] READ : ADDR=0x00000178 RDATA=0xef5f5f73
# UVM_INFO ../env/apb_agent/apb_monitor.sv(81) @ 9205000: uvm_test_top.env.agent.monitor [apb_monitor] Collected: T#0 | UNKNOWN_SEQ | ADDR=0x000002dc WRITE=1 DATA=0xf217d49a RDATA=0xef5f5f73 SLVERR=0
# UVM_INFO ../seq/apb_wr_rd_seq.sv(41) @ 9205000: uvm_test_top.env.agent.sequencer@@wr_rd_seq [apb_wr_rd_seq] WRITE: ADDR=0x000002dc DATA=0xf217d49a
# UVM_INFO ../env/apb_agent/apb_monitor.sv(81) @ 9265000: uvm_test_top.env.agent.monitor [apb_monitor] Collected: T#0 | UNKNOWN_SEQ | ADDR=0x000002dc WRITE=0 DATA=0xf217d49a RDATA=0xf217d49a SLVERR=0
# UVM_INFO ../env/apb_scoreboard.sv(73) @ 9265000: uvm_test_top.env.scoreboard [apb_scoreboard] T#0 [READ PASS] ADDR=0x000002dc RDATA=0xf217d49a
# UVM_INFO ../seq/apb_wr_rd_seq.sv(56) @ 9265000: uvm_test_top.env.agent.sequencer@@wr_rd_seq [apb_wr_rd_seq] READ : ADDR=0x000002dc RDATA=0xf217d49a
# UVM_INFO ../env/apb_agent/apb_monitor.sv(81) @ 9305000: uvm_test_top.env.agent.monitor [apb_monitor] Collected: T#0 | UNKNOWN_SEQ | ADDR=0x000002b4 WRITE=1 DATA=0xdb84f269 RDATA=0xf217d49a SLVERR=0
# UVM_INFO ../seq/apb_wr_rd_seq.sv(41) @ 9305000: uvm_test_top.env.agent.sequencer@@wr_rd_seq [apb_wr_rd_seq] WRITE: ADDR=0x000002b4 DATA=0xdb84f269
# UVM_INFO ../env/apb_agent/apb_monitor.sv(81) @ 9385000: uvm_test_top.env.agent.monitor [apb_monitor] Collected: T#0 | UNKNOWN_SEQ | ADDR=0x000002b4 WRITE=0 DATA=0xdb84f269 RDATA=0xdb84f269 SLVERR=0
# UVM_INFO ../env/apb_scoreboard.sv(73) @ 9385000: uvm_test_top.env.scoreboard [apb_scoreboard] T#0 [READ PASS] ADDR=0x000002b4 RDATA=0xdb84f269
# UVM_INFO ../seq/apb_wr_rd_seq.sv(56) @ 9385000: uvm_test_top.env.agent.sequencer@@wr_rd_seq [apb_wr_rd_seq] READ : ADDR=0x000002b4 RDATA=0xdb84f269
# UVM_INFO ../env/apb_agent/apb_monitor.sv(81) @ 9475000: uvm_test_top.env.agent.monitor [apb_monitor] Collected: T#0 | UNKNOWN_SEQ | ADDR=0x0000035c WRITE=1 DATA=0x8c7b45ff RDATA=0xdb84f269 SLVERR=0
# UVM_INFO ../seq/apb_wr_rd_seq.sv(41) @ 9475000: uvm_test_top.env.agent.sequencer@@wr_rd_seq [apb_wr_rd_seq] WRITE: ADDR=0x0000035c DATA=0x8c7b45ff
# UVM_INFO ../env/apb_agent/apb_monitor.sv(81) @ 9555000: uvm_test_top.env.agent.monitor [apb_monitor] Collected: T#0 | UNKNOWN_SEQ | ADDR=0x0000035c WRITE=0 DATA=0x8c7b45ff RDATA=0x8c7b45ff SLVERR=0
# UVM_INFO ../env/apb_scoreboard.sv(73) @ 9555000: uvm_test_top.env.scoreboard [apb_scoreboard] T#0 [READ PASS] ADDR=0x0000035c RDATA=0x8c7b45ff
# UVM_INFO ../seq/apb_wr_rd_seq.sv(56) @ 9555000: uvm_test_top.env.agent.sequencer@@wr_rd_seq [apb_wr_rd_seq] READ : ADDR=0x0000035c RDATA=0x8c7b45ff
# UVM_INFO ../env/apb_agent/apb_monitor.sv(81) @ 9605000: uvm_test_top.env.agent.monitor [apb_monitor] Collected: T#0 | UNKNOWN_SEQ | ADDR=0x00000154 WRITE=1 DATA=0xcab062e6 RDATA=0x8c7b45ff SLVERR=0
# UVM_INFO ../seq/apb_wr_rd_seq.sv(41) @ 9605000: uvm_test_top.env.agent.sequencer@@wr_rd_seq [apb_wr_rd_seq] WRITE: ADDR=0x00000154 DATA=0xcab062e6
# UVM_INFO ../env/apb_agent/apb_monitor.sv(81) @ 9705000: uvm_test_top.env.agent.monitor [apb_monitor] Collected: T#0 | UNKNOWN_SEQ | ADDR=0x00000154 WRITE=0 DATA=0xcab062e6 RDATA=0xcab062e6 SLVERR=0
# UVM_INFO ../env/apb_scoreboard.sv(73) @ 9705000: uvm_test_top.env.scoreboard [apb_scoreboard] T#0 [READ PASS] ADDR=0x00000154 RDATA=0xcab062e6
# UVM_INFO ../seq/apb_wr_rd_seq.sv(56) @ 9705000: uvm_test_top.env.agent.sequencer@@wr_rd_seq [apb_wr_rd_seq] READ : ADDR=0x00000154 RDATA=0xcab062e6
# UVM_INFO ../env/apb_agent/apb_monitor.sv(81) @ 9805000: uvm_test_top.env.agent.monitor [apb_monitor] Collected: T#0 | UNKNOWN_SEQ | ADDR=0x00000278 WRITE=1 DATA=0xe6782025 RDATA=0xcab062e6 SLVERR=0
# UVM_INFO ../seq/apb_wr_rd_seq.sv(41) @ 9805000: uvm_test_top.env.agent.sequencer@@wr_rd_seq [apb_wr_rd_seq] WRITE: ADDR=0x00000278 DATA=0xe6782025
# UVM_INFO ../env/apb_agent/apb_monitor.sv(81) @ 9855000: uvm_test_top.env.agent.monitor [apb_monitor] Collected: T#0 | UNKNOWN_SEQ | ADDR=0x00000278 WRITE=0 DATA=0xe6782025 RDATA=0xe6782025 SLVERR=0
# UVM_INFO ../env/apb_scoreboard.sv(73) @ 9855000: uvm_test_top.env.scoreboard [apb_scoreboard] T#0 [READ PASS] ADDR=0x00000278 RDATA=0xe6782025
# UVM_INFO ../seq/apb_wr_rd_seq.sv(56) @ 9855000: uvm_test_top.env.agent.sequencer@@wr_rd_seq [apb_wr_rd_seq] READ : ADDR=0x00000278 RDATA=0xe6782025
# UVM_INFO ../env/apb_agent/apb_monitor.sv(81) @ 9945000: uvm_test_top.env.agent.monitor [apb_monitor] Collected: T#0 | UNKNOWN_SEQ | ADDR=0x0000014c WRITE=1 DATA=0x409562d7 RDATA=0xe6782025 SLVERR=0
# UVM_INFO ../seq/apb_wr_rd_seq.sv(41) @ 9945000: uvm_test_top.env.agent.sequencer@@wr_rd_seq [apb_wr_rd_seq] WRITE: ADDR=0x0000014c DATA=0x409562d7
# UVM_INFO ../env/apb_agent/apb_monitor.sv(81) @ 10025000: uvm_test_top.env.agent.monitor [apb_monitor] Collected: T#0 | UNKNOWN_SEQ | ADDR=0x0000014c WRITE=0 DATA=0x409562d7 RDATA=0x409562d7 SLVERR=0
# UVM_INFO ../env/apb_scoreboard.sv(73) @ 10025000: uvm_test_top.env.scoreboard [apb_scoreboard] T#0 [READ PASS] ADDR=0x0000014c RDATA=0x409562d7
# UVM_INFO ../seq/apb_wr_rd_seq.sv(56) @ 10025000: uvm_test_top.env.agent.sequencer@@wr_rd_seq [apb_wr_rd_seq] READ : ADDR=0x0000014c RDATA=0x409562d7
# UVM_INFO ../env/apb_agent/apb_monitor.sv(81) @ 10115000: uvm_test_top.env.agent.monitor [apb_monitor] Collected: T#0 | UNKNOWN_SEQ | ADDR=0x00000308 WRITE=1 DATA=0x75463466 RDATA=0x409562d7 SLVERR=0
# UVM_INFO ../seq/apb_wr_rd_seq.sv(41) @ 10115000: uvm_test_top.env.agent.sequencer@@wr_rd_seq [apb_wr_rd_seq] WRITE: ADDR=0x00000308 DATA=0x75463466
# UVM_INFO ../env/apb_agent/apb_monitor.sv(81) @ 10195000: uvm_test_top.env.agent.monitor [apb_monitor] Collected: T#0 | UNKNOWN_SEQ | ADDR=0x00000308 WRITE=0 DATA=0x75463466 RDATA=0x75463466 SLVERR=0
# UVM_INFO ../env/apb_scoreboard.sv(73) @ 10195000: uvm_test_top.env.scoreboard [apb_scoreboard] T#0 [READ PASS] ADDR=0x00000308 RDATA=0x75463466
# UVM_INFO ../seq/apb_wr_rd_seq.sv(56) @ 10195000: uvm_test_top.env.agent.sequencer@@wr_rd_seq [apb_wr_rd_seq] READ : ADDR=0x00000308 RDATA=0x75463466
# UVM_INFO ../env/apb_agent/apb_monitor.sv(81) @ 10265000: uvm_test_top.env.agent.monitor [apb_monitor] Collected: T#0 | UNKNOWN_SEQ | ADDR=0x000001f4 WRITE=1 DATA=0x060f3b02 RDATA=0x75463466 SLVERR=0
# UVM_INFO ../seq/apb_wr_rd_seq.sv(41) @ 10265000: uvm_test_top.env.agent.sequencer@@wr_rd_seq [apb_wr_rd_seq] WRITE: ADDR=0x000001f4 DATA=0x060f3b02
# UVM_INFO ../env/apb_agent/apb_monitor.sv(81) @ 10355000: uvm_test_top.env.agent.monitor [apb_monitor] Collected: T#0 | UNKNOWN_SEQ | ADDR=0x000001f4 WRITE=0 DATA=0x060f3b02 RDATA=0x060f3b02 SLVERR=0
# UVM_INFO ../env/apb_scoreboard.sv(73) @ 10355000: uvm_test_top.env.scoreboard [apb_scoreboard] T#0 [READ PASS] ADDR=0x000001f4 RDATA=0x060f3b02
# UVM_INFO ../seq/apb_wr_rd_seq.sv(56) @ 10355000: uvm_test_top.env.agent.sequencer@@wr_rd_seq [apb_wr_rd_seq] READ : ADDR=0x000001f4 RDATA=0x060f3b02
# UVM_INFO ../env/apb_agent/apb_monitor.sv(81) @ 10465000: uvm_test_top.env.agent.monitor [apb_monitor] Collected: T#0 | UNKNOWN_SEQ | ADDR=0x00000140 WRITE=1 DATA=0xcb66c7ff RDATA=0x060f3b02 SLVERR=0
# UVM_INFO ../seq/apb_wr_rd_seq.sv(41) @ 10465000: uvm_test_top.env.agent.sequencer@@wr_rd_seq [apb_wr_rd_seq] WRITE: ADDR=0x00000140 DATA=0xcb66c7ff
# UVM_INFO ../env/apb_agent/apb_monitor.sv(81) @ 10505000: uvm_test_top.env.agent.monitor [apb_monitor] Collected: T#0 | UNKNOWN_SEQ | ADDR=0x00000140 WRITE=0 DATA=0xcb66c7ff RDATA=0xcb66c7ff SLVERR=0
# UVM_INFO ../env/apb_scoreboard.sv(73) @ 10505000: uvm_test_top.env.scoreboard [apb_scoreboard] T#0 [READ PASS] ADDR=0x00000140 RDATA=0xcb66c7ff
# UVM_INFO ../seq/apb_wr_rd_seq.sv(56) @ 10505000: uvm_test_top.env.agent.sequencer@@wr_rd_seq [apb_wr_rd_seq] READ : ADDR=0x00000140 RDATA=0xcb66c7ff
# UVM_INFO ../env/apb_agent/apb_monitor.sv(81) @ 10575000: uvm_test_top.env.agent.monitor [apb_monitor] Collected: T#0 | UNKNOWN_SEQ | ADDR=0x00000068 WRITE=1 DATA=0x9e538b31 RDATA=0xcb66c7ff SLVERR=0
# UVM_INFO ../seq/apb_wr_rd_seq.sv(41) @ 10575000: uvm_test_top.env.agent.sequencer@@wr_rd_seq [apb_wr_rd_seq] WRITE: ADDR=0x00000068 DATA=0x9e538b31
# UVM_INFO ../env/apb_agent/apb_monitor.sv(81) @ 10665000: uvm_test_top.env.agent.monitor [apb_monitor] Collected: T#0 | UNKNOWN_SEQ | ADDR=0x00000068 WRITE=0 DATA=0x9e538b31 RDATA=0x9e538b31 SLVERR=0
# UVM_INFO ../env/apb_scoreboard.sv(73) @ 10665000: uvm_test_top.env.scoreboard [apb_scoreboard] T#0 [READ PASS] ADDR=0x00000068 RDATA=0x9e538b31
# UVM_INFO ../seq/apb_wr_rd_seq.sv(56) @ 10665000: uvm_test_top.env.agent.sequencer@@wr_rd_seq [apb_wr_rd_seq] READ : ADDR=0x00000068 RDATA=0x9e538b31
# UVM_INFO ../env/apb_agent/apb_monitor.sv(81) @ 10725000: uvm_test_top.env.agent.monitor [apb_monitor] Collected: T#0 | UNKNOWN_SEQ | ADDR=0x000002b0 WRITE=1 DATA=0x3c4026fd RDATA=0x9e538b31 SLVERR=0
# UVM_INFO ../seq/apb_wr_rd_seq.sv(41) @ 10725000: uvm_test_top.env.agent.sequencer@@wr_rd_seq [apb_wr_rd_seq] WRITE: ADDR=0x000002b0 DATA=0x3c4026fd
# UVM_INFO ../env/apb_agent/apb_monitor.sv(81) @ 10815000: uvm_test_top.env.agent.monitor [apb_monitor] Collected: T#0 | UNKNOWN_SEQ | ADDR=0x000002b0 WRITE=0 DATA=0x3c4026fd RDATA=0x3c4026fd SLVERR=0
# UVM_INFO ../env/apb_scoreboard.sv(73) @ 10815000: uvm_test_top.env.scoreboard [apb_scoreboard] T#0 [READ PASS] ADDR=0x000002b0 RDATA=0x3c4026fd
# UVM_INFO ../seq/apb_wr_rd_seq.sv(56) @ 10815000: uvm_test_top.env.agent.sequencer@@wr_rd_seq [apb_wr_rd_seq] READ : ADDR=0x000002b0 RDATA=0x3c4026fd
# UVM_INFO ../env/apb_agent/apb_monitor.sv(81) @ 10865000: uvm_test_top.env.agent.monitor [apb_monitor] Collected: T#0 | UNKNOWN_SEQ | ADDR=0x00000340 WRITE=1 DATA=0x11ffbe9a RDATA=0x3c4026fd SLVERR=0
# UVM_INFO ../seq/apb_wr_rd_seq.sv(41) @ 10865000: uvm_test_top.env.agent.sequencer@@wr_rd_seq [apb_wr_rd_seq] WRITE: ADDR=0x00000340 DATA=0x11ffbe9a
# UVM_INFO ../env/apb_agent/apb_monitor.sv(81) @ 10965000: uvm_test_top.env.agent.monitor [apb_monitor] Collected: T#0 | UNKNOWN_SEQ | ADDR=0x00000340 WRITE=0 DATA=0x11ffbe9a RDATA=0x11ffbe9a SLVERR=0
# UVM_INFO ../env/apb_scoreboard.sv(73) @ 10965000: uvm_test_top.env.scoreboard [apb_scoreboard] T#0 [READ PASS] ADDR=0x00000340 RDATA=0x11ffbe9a
# UVM_INFO ../seq/apb_wr_rd_seq.sv(56) @ 10965000: uvm_test_top.env.agent.sequencer@@wr_rd_seq [apb_wr_rd_seq] READ : ADDR=0x00000340 RDATA=0x11ffbe9a
# UVM_INFO ../env/apb_agent/apb_monitor.sv(81) @ 11055000: uvm_test_top.env.agent.monitor [apb_monitor] Collected: T#0 | UNKNOWN_SEQ | ADDR=0x00000068 WRITE=1 DATA=0x5a6a1467 RDATA=0x11ffbe9a SLVERR=0
# UVM_INFO ../seq/apb_wr_rd_seq.sv(41) @ 11055000: uvm_test_top.env.agent.sequencer@@wr_rd_seq [apb_wr_rd_seq] WRITE: ADDR=0x00000068 DATA=0x5a6a1467
# UVM_INFO ../env/apb_agent/apb_monitor.sv(81) @ 11135000: uvm_test_top.env.agent.monitor [apb_monitor] Collected: T#0 | UNKNOWN_SEQ | ADDR=0x00000068 WRITE=0 DATA=0x5a6a1467 RDATA=0x5a6a1467 SLVERR=0
# UVM_INFO ../env/apb_scoreboard.sv(73) @ 11135000: uvm_test_top.env.scoreboard [apb_scoreboard] T#0 [READ PASS] ADDR=0x00000068 RDATA=0x5a6a1467
# UVM_INFO ../seq/apb_wr_rd_seq.sv(56) @ 11135000: uvm_test_top.env.agent.sequencer@@wr_rd_seq [apb_wr_rd_seq] READ : ADDR=0x00000068 RDATA=0x5a6a1467
# UVM_INFO ../env/apb_agent/apb_monitor.sv(81) @ 11175000: uvm_test_top.env.agent.monitor [apb_monitor] Collected: T#0 | UNKNOWN_SEQ | ADDR=0x00000344 WRITE=1 DATA=0x3292686b RDATA=0x5a6a1467 SLVERR=0
# UVM_INFO ../seq/apb_wr_rd_seq.sv(41) @ 11175000: uvm_test_top.env.agent.sequencer@@wr_rd_seq [apb_wr_rd_seq] WRITE: ADDR=0x00000344 DATA=0x3292686b
# UVM_INFO ../env/apb_agent/apb_monitor.sv(81) @ 11245000: uvm_test_top.env.agent.monitor [apb_monitor] Collected: T#0 | UNKNOWN_SEQ | ADDR=0x00000344 WRITE=0 DATA=0x3292686b RDATA=0x3292686b SLVERR=0
# UVM_INFO ../env/apb_scoreboard.sv(73) @ 11245000: uvm_test_top.env.scoreboard [apb_scoreboard] T#0 [READ PASS] ADDR=0x00000344 RDATA=0x3292686b
# UVM_INFO ../seq/apb_wr_rd_seq.sv(56) @ 11245000: uvm_test_top.env.agent.sequencer@@wr_rd_seq [apb_wr_rd_seq] READ : ADDR=0x00000344 RDATA=0x3292686b
# UVM_INFO ../env/apb_agent/apb_monitor.sv(81) @ 11345000: uvm_test_top.env.agent.monitor [apb_monitor] Collected: T#0 | UNKNOWN_SEQ | ADDR=0x000002dc WRITE=1 DATA=0x59577795 RDATA=0x3292686b SLVERR=0
# UVM_INFO ../seq/apb_wr_rd_seq.sv(41) @ 11345000: uvm_test_top.env.agent.sequencer@@wr_rd_seq [apb_wr_rd_seq] WRITE: ADDR=0x000002dc DATA=0x59577795
# UVM_INFO ../env/apb_agent/apb_monitor.sv(81) @ 11455000: uvm_test_top.env.agent.monitor [apb_monitor] Collected: T#0 | UNKNOWN_SEQ | ADDR=0x000002dc WRITE=0 DATA=0x59577795 RDATA=0x59577795 SLVERR=0
# UVM_INFO ../env/apb_scoreboard.sv(73) @ 11455000: uvm_test_top.env.scoreboard [apb_scoreboard] T#0 [READ PASS] ADDR=0x000002dc RDATA=0x59577795
# UVM_INFO ../seq/apb_wr_rd_seq.sv(56) @ 11455000: uvm_test_top.env.agent.sequencer@@wr_rd_seq [apb_wr_rd_seq] READ : ADDR=0x000002dc RDATA=0x59577795
# UVM_INFO ../env/apb_agent/apb_monitor.sv(81) @ 11505000: uvm_test_top.env.agent.monitor [apb_monitor] Collected: T#0 | UNKNOWN_SEQ | ADDR=0x00000264 WRITE=1 DATA=0xf38e46f3 RDATA=0x59577795 SLVERR=0
# UVM_INFO ../seq/apb_wr_rd_seq.sv(41) @ 11505000: uvm_test_top.env.agent.sequencer@@wr_rd_seq [apb_wr_rd_seq] WRITE: ADDR=0x00000264 DATA=0xf38e46f3
# UVM_INFO ../env/apb_agent/apb_monitor.sv(81) @ 11605000: uvm_test_top.env.agent.monitor [apb_monitor] Collected: T#0 | UNKNOWN_SEQ | ADDR=0x00000264 WRITE=0 DATA=0xf38e46f3 RDATA=0xf38e46f3 SLVERR=0
# UVM_INFO ../env/apb_scoreboard.sv(73) @ 11605000: uvm_test_top.env.scoreboard [apb_scoreboard] T#0 [READ PASS] ADDR=0x00000264 RDATA=0xf38e46f3
# UVM_INFO ../seq/apb_wr_rd_seq.sv(56) @ 11605000: uvm_test_top.env.agent.sequencer@@wr_rd_seq [apb_wr_rd_seq] READ : ADDR=0x00000264 RDATA=0xf38e46f3
# UVM_INFO ../env/apb_agent/apb_monitor.sv(81) @ 11645000: uvm_test_top.env.agent.monitor [apb_monitor] Collected: T#0 | UNKNOWN_SEQ | ADDR=0x000001f8 WRITE=1 DATA=0xc83f8978 RDATA=0xf38e46f3 SLVERR=0
# UVM_INFO ../seq/apb_wr_rd_seq.sv(41) @ 11645000: uvm_test_top.env.agent.sequencer@@wr_rd_seq [apb_wr_rd_seq] WRITE: ADDR=0x000001f8 DATA=0xc83f8978
# UVM_INFO ../env/apb_agent/apb_monitor.sv(81) @ 11755000: uvm_test_top.env.agent.monitor [apb_monitor] Collected: T#0 | UNKNOWN_SEQ | ADDR=0x000001f8 WRITE=0 DATA=0xc83f8978 RDATA=0xc83f8978 SLVERR=0
# UVM_INFO ../env/apb_scoreboard.sv(73) @ 11755000: uvm_test_top.env.scoreboard [apb_scoreboard] T#0 [READ PASS] ADDR=0x000001f8 RDATA=0xc83f8978
# UVM_INFO ../seq/apb_wr_rd_seq.sv(56) @ 11755000: uvm_test_top.env.agent.sequencer@@wr_rd_seq [apb_wr_rd_seq] READ : ADDR=0x000001f8 RDATA=0xc83f8978
# UVM_INFO ../env/apb_agent/apb_monitor.sv(81) @ 11835000: uvm_test_top.env.agent.monitor [apb_monitor] Collected: T#0 | UNKNOWN_SEQ | ADDR=0x000001e0 WRITE=1 DATA=0x54368aad RDATA=0xc83f8978 SLVERR=0
# UVM_INFO ../seq/apb_wr_rd_seq.sv(41) @ 11835000: uvm_test_top.env.agent.sequencer@@wr_rd_seq [apb_wr_rd_seq] WRITE: ADDR=0x000001e0 DATA=0x54368aad
# UVM_INFO ../env/apb_agent/apb_monitor.sv(81) @ 11895000: uvm_test_top.env.agent.monitor [apb_monitor] Collected: T#0 | UNKNOWN_SEQ | ADDR=0x000001e0 WRITE=0 DATA=0x54368aad RDATA=0x54368aad SLVERR=0
# UVM_INFO ../env/apb_scoreboard.sv(73) @ 11895000: uvm_test_top.env.scoreboard [apb_scoreboard] T#0 [READ PASS] ADDR=0x000001e0 RDATA=0x54368aad
# UVM_INFO ../seq/apb_wr_rd_seq.sv(56) @ 11895000: uvm_test_top.env.agent.sequencer@@wr_rd_seq [apb_wr_rd_seq] READ : ADDR=0x000001e0 RDATA=0x54368aad
# UVM_INFO ../env/apb_agent/apb_monitor.sv(81) @ 11955000: uvm_test_top.env.agent.monitor [apb_monitor] Collected: T#0 | UNKNOWN_SEQ | ADDR=0x00000164 WRITE=1 DATA=0xdebe5478 RDATA=0x54368aad SLVERR=0
# UVM_INFO ../seq/apb_wr_rd_seq.sv(41) @ 11955000: uvm_test_top.env.agent.sequencer@@wr_rd_seq [apb_wr_rd_seq] WRITE: ADDR=0x00000164 DATA=0xdebe5478
# UVM_INFO ../env/apb_agent/apb_monitor.sv(81) @ 12015000: uvm_test_top.env.agent.monitor [apb_monitor] Collected: T#0 | UNKNOWN_SEQ | ADDR=0x00000164 WRITE=0 DATA=0xdebe5478 RDATA=0xdebe5478 SLVERR=0
# UVM_INFO ../env/apb_scoreboard.sv(73) @ 12015000: uvm_test_top.env.scoreboard [apb_scoreboard] T#0 [READ PASS] ADDR=0x00000164 RDATA=0xdebe5478
# UVM_INFO ../seq/apb_wr_rd_seq.sv(56) @ 12015000: uvm_test_top.env.agent.sequencer@@wr_rd_seq [apb_wr_rd_seq] READ : ADDR=0x00000164 RDATA=0xdebe5478
# UVM_INFO ../env/apb_agent/apb_monitor.sv(81) @ 12055000: uvm_test_top.env.agent.monitor [apb_monitor] Collected: T#0 | UNKNOWN_SEQ | ADDR=0x000001e0 WRITE=1 DATA=0xfb9791d1 RDATA=0xdebe5478 SLVERR=0
# UVM_INFO ../seq/apb_wr_rd_seq.sv(41) @ 12055000: uvm_test_top.env.agent.sequencer@@wr_rd_seq [apb_wr_rd_seq] WRITE: ADDR=0x000001e0 DATA=0xfb9791d1
# UVM_INFO ../env/apb_agent/apb_monitor.sv(81) @ 12165000: uvm_test_top.env.agent.monitor [apb_monitor] Collected: T#0 | UNKNOWN_SEQ | ADDR=0x000001e0 WRITE=0 DATA=0xfb9791d1 RDATA=0xfb9791d1 SLVERR=0
# UVM_INFO ../env/apb_scoreboard.sv(73) @ 12165000: uvm_test_top.env.scoreboard [apb_scoreboard] T#0 [READ PASS] ADDR=0x000001e0 RDATA=0xfb9791d1
# UVM_INFO ../seq/apb_wr_rd_seq.sv(56) @ 12165000: uvm_test_top.env.agent.sequencer@@wr_rd_seq [apb_wr_rd_seq] READ : ADDR=0x000001e0 RDATA=0xfb9791d1
# UVM_INFO ../env/apb_agent/apb_monitor.sv(81) @ 12215000: uvm_test_top.env.agent.monitor [apb_monitor] Collected: T#0 | UNKNOWN_SEQ | ADDR=0x000003b4 WRITE=1 DATA=0xeaf9839b RDATA=0xfb9791d1 SLVERR=0
# UVM_INFO ../seq/apb_wr_rd_seq.sv(41) @ 12215000: uvm_test_top.env.agent.sequencer@@wr_rd_seq [apb_wr_rd_seq] WRITE: ADDR=0x000003b4 DATA=0xeaf9839b
# UVM_INFO ../env/apb_agent/apb_monitor.sv(81) @ 12255000: uvm_test_top.env.agent.monitor [apb_monitor] Collected: T#0 | UNKNOWN_SEQ | ADDR=0x000003b4 WRITE=0 DATA=0xeaf9839b RDATA=0xeaf9839b SLVERR=0
# UVM_INFO ../env/apb_scoreboard.sv(73) @ 12255000: uvm_test_top.env.scoreboard [apb_scoreboard] T#0 [READ PASS] ADDR=0x000003b4 RDATA=0xeaf9839b
# UVM_INFO ../seq/apb_wr_rd_seq.sv(56) @ 12255000: uvm_test_top.env.agent.sequencer@@wr_rd_seq [apb_wr_rd_seq] READ : ADDR=0x000003b4 RDATA=0xeaf9839b
# UVM_INFO ../env/apb_agent/apb_monitor.sv(81) @ 12305000: uvm_test_top.env.agent.monitor [apb_monitor] Collected: T#0 | UNKNOWN_SEQ | ADDR=0x00000250 WRITE=1 DATA=0xc3ba8562 RDATA=0xeaf9839b SLVERR=0
# UVM_INFO ../seq/apb_wr_rd_seq.sv(41) @ 12305000: uvm_test_top.env.agent.sequencer@@wr_rd_seq [apb_wr_rd_seq] WRITE: ADDR=0x00000250 DATA=0xc3ba8562
# UVM_INFO ../env/apb_agent/apb_monitor.sv(81) @ 12395000: uvm_test_top.env.agent.monitor [apb_monitor] Collected: T#0 | UNKNOWN_SEQ | ADDR=0x00000250 WRITE=0 DATA=0xc3ba8562 RDATA=0xc3ba8562 SLVERR=0
# UVM_INFO ../env/apb_scoreboard.sv(73) @ 12395000: uvm_test_top.env.scoreboard [apb_scoreboard] T#0 [READ PASS] ADDR=0x00000250 RDATA=0xc3ba8562
# UVM_INFO ../seq/apb_wr_rd_seq.sv(56) @ 12395000: uvm_test_top.env.agent.sequencer@@wr_rd_seq [apb_wr_rd_seq] READ : ADDR=0x00000250 RDATA=0xc3ba8562
# UVM_INFO ../env/apb_agent/apb_monitor.sv(81) @ 12435000: uvm_test_top.env.agent.monitor [apb_monitor] Collected: T#0 | UNKNOWN_SEQ | ADDR=0x00000038 WRITE=1 DATA=0x475cfa7b RDATA=0xc3ba8562 SLVERR=0
# UVM_INFO ../seq/apb_wr_rd_seq.sv(41) @ 12435000: uvm_test_top.env.agent.sequencer@@wr_rd_seq [apb_wr_rd_seq] WRITE: ADDR=0x00000038 DATA=0x475cfa7b
# UVM_INFO ../env/apb_agent/apb_monitor.sv(81) @ 12545000: uvm_test_top.env.agent.monitor [apb_monitor] Collected: T#0 | UNKNOWN_SEQ | ADDR=0x00000038 WRITE=0 DATA=0x475cfa7b RDATA=0x475cfa7b SLVERR=0
# UVM_INFO ../env/apb_scoreboard.sv(73) @ 12545000: uvm_test_top.env.scoreboard [apb_scoreboard] T#0 [READ PASS] ADDR=0x00000038 RDATA=0x475cfa7b
# UVM_INFO ../seq/apb_wr_rd_seq.sv(56) @ 12545000: uvm_test_top.env.agent.sequencer@@wr_rd_seq [apb_wr_rd_seq] READ : ADDR=0x00000038 RDATA=0x475cfa7b
# UVM_INFO ../env/apb_agent/apb_monitor.sv(81) @ 12585000: uvm_test_top.env.agent.monitor [apb_monitor] Collected: T#0 | UNKNOWN_SEQ | ADDR=0x000002d4 WRITE=1 DATA=0x8bfffb1a RDATA=0x475cfa7b SLVERR=0
# UVM_INFO ../seq/apb_wr_rd_seq.sv(41) @ 12585000: uvm_test_top.env.agent.sequencer@@wr_rd_seq [apb_wr_rd_seq] WRITE: ADDR=0x000002d4 DATA=0x8bfffb1a
# UVM_INFO ../env/apb_agent/apb_monitor.sv(81) @ 12625000: uvm_test_top.env.agent.monitor [apb_monitor] Collected: T#0 | UNKNOWN_SEQ | ADDR=0x000002d4 WRITE=0 DATA=0x8bfffb1a RDATA=0x8bfffb1a SLVERR=0
# UVM_INFO ../env/apb_scoreboard.sv(73) @ 12625000: uvm_test_top.env.scoreboard [apb_scoreboard] T#0 [READ PASS] ADDR=0x000002d4 RDATA=0x8bfffb1a
# UVM_INFO ../seq/apb_wr_rd_seq.sv(56) @ 12625000: uvm_test_top.env.agent.sequencer@@wr_rd_seq [apb_wr_rd_seq] READ : ADDR=0x000002d4 RDATA=0x8bfffb1a
# UVM_INFO ../env/apb_agent/apb_monitor.sv(81) @ 12705000: uvm_test_top.env.agent.monitor [apb_monitor] Collected: T#0 | UNKNOWN_SEQ | ADDR=0x0000027c WRITE=1 DATA=0xe4c9b0f5 RDATA=0x8bfffb1a SLVERR=0
# UVM_INFO ../seq/apb_wr_rd_seq.sv(41) @ 12705000: uvm_test_top.env.agent.sequencer@@wr_rd_seq [apb_wr_rd_seq] WRITE: ADDR=0x0000027c DATA=0xe4c9b0f5
# UVM_INFO ../env/apb_agent/apb_monitor.sv(81) @ 12775000: uvm_test_top.env.agent.monitor [apb_monitor] Collected: T#0 | UNKNOWN_SEQ | ADDR=0x0000027c WRITE=0 DATA=0xe4c9b0f5 RDATA=0xe4c9b0f5 SLVERR=0
# UVM_INFO ../env/apb_scoreboard.sv(73) @ 12775000: uvm_test_top.env.scoreboard [apb_scoreboard] T#0 [READ PASS] ADDR=0x0000027c RDATA=0xe4c9b0f5
# UVM_INFO ../seq/apb_wr_rd_seq.sv(56) @ 12775000: uvm_test_top.env.agent.sequencer@@wr_rd_seq [apb_wr_rd_seq] READ : ADDR=0x0000027c RDATA=0xe4c9b0f5
# UVM_INFO ../env/apb_agent/apb_monitor.sv(81) @ 12835000: uvm_test_top.env.agent.monitor [apb_monitor] Collected: T#0 | UNKNOWN_SEQ | ADDR=0x00000380 WRITE=1 DATA=0x1ede8fed RDATA=0xe4c9b0f5 SLVERR=0
# UVM_INFO ../seq/apb_wr_rd_seq.sv(41) @ 12835000: uvm_test_top.env.agent.sequencer@@wr_rd_seq [apb_wr_rd_seq] WRITE: ADDR=0x00000380 DATA=0x1ede8fed
# UVM_INFO ../env/apb_agent/apb_monitor.sv(81) @ 12895000: uvm_test_top.env.agent.monitor [apb_monitor] Collected: T#0 | UNKNOWN_SEQ | ADDR=0x00000380 WRITE=0 DATA=0x1ede8fed RDATA=0x1ede8fed SLVERR=0
# UVM_INFO ../env/apb_scoreboard.sv(73) @ 12895000: uvm_test_top.env.scoreboard [apb_scoreboard] T#0 [READ PASS] ADDR=0x00000380 RDATA=0x1ede8fed
# UVM_INFO ../seq/apb_wr_rd_seq.sv(56) @ 12895000: uvm_test_top.env.agent.sequencer@@wr_rd_seq [apb_wr_rd_seq] READ : ADDR=0x00000380 RDATA=0x1ede8fed
# UVM_INFO ../env/apb_agent/apb_monitor.sv(81) @ 12945000: uvm_test_top.env.agent.monitor [apb_monitor] Collected: T#0 | UNKNOWN_SEQ | ADDR=0x000000bc WRITE=1 DATA=0x064d31b1 RDATA=0x1ede8fed SLVERR=0
# UVM_INFO ../seq/apb_wr_rd_seq.sv(41) @ 12945000: uvm_test_top.env.agent.sequencer@@wr_rd_seq [apb_wr_rd_seq] WRITE: ADDR=0x000000bc DATA=0x064d31b1
# UVM_INFO ../env/apb_agent/apb_monitor.sv(81) @ 13055000: uvm_test_top.env.agent.monitor [apb_monitor] Collected: T#0 | UNKNOWN_SEQ | ADDR=0x000000bc WRITE=0 DATA=0x064d31b1 RDATA=0x064d31b1 SLVERR=0
# UVM_INFO ../env/apb_scoreboard.sv(73) @ 13055000: uvm_test_top.env.scoreboard [apb_scoreboard] T#0 [READ PASS] ADDR=0x000000bc RDATA=0x064d31b1
# UVM_INFO ../seq/apb_wr_rd_seq.sv(56) @ 13055000: uvm_test_top.env.agent.sequencer@@wr_rd_seq [apb_wr_rd_seq] READ : ADDR=0x000000bc RDATA=0x064d31b1
# UVM_INFO ../env/apb_agent/apb_monitor.sv(81) @ 13095000: uvm_test_top.env.agent.monitor [apb_monitor] Collected: T#0 | UNKNOWN_SEQ | ADDR=0x0000037c WRITE=1 DATA=0xafd8a9b9 RDATA=0x064d31b1 SLVERR=0
# UVM_INFO ../seq/apb_wr_rd_seq.sv(41) @ 13095000: uvm_test_top.env.agent.sequencer@@wr_rd_seq [apb_wr_rd_seq] WRITE: ADDR=0x0000037c DATA=0xafd8a9b9
# UVM_INFO ../env/apb_agent/apb_monitor.sv(81) @ 13155000: uvm_test_top.env.agent.monitor [apb_monitor] Collected: T#0 | UNKNOWN_SEQ | ADDR=0x0000037c WRITE=0 DATA=0xafd8a9b9 RDATA=0xafd8a9b9 SLVERR=0
# UVM_INFO ../env/apb_scoreboard.sv(73) @ 13155000: uvm_test_top.env.scoreboard [apb_scoreboard] T#0 [READ PASS] ADDR=0x0000037c RDATA=0xafd8a9b9
# UVM_INFO ../seq/apb_wr_rd_seq.sv(56) @ 13155000: uvm_test_top.env.agent.sequencer@@wr_rd_seq [apb_wr_rd_seq] READ : ADDR=0x0000037c RDATA=0xafd8a9b9
# UVM_INFO ../env/apb_agent/apb_monitor.sv(81) @ 13205000: uvm_test_top.env.agent.monitor [apb_monitor] Collected: T#0 | UNKNOWN_SEQ | ADDR=0x00000040 WRITE=1 DATA=0x03c10e4b RDATA=0xafd8a9b9 SLVERR=0
# UVM_INFO ../seq/apb_wr_rd_seq.sv(41) @ 13205000: uvm_test_top.env.agent.sequencer@@wr_rd_seq [apb_wr_rd_seq] WRITE: ADDR=0x00000040 DATA=0x03c10e4b
# UVM_INFO ../env/apb_agent/apb_monitor.sv(81) @ 13245000: uvm_test_top.env.agent.monitor [apb_monitor] Collected: T#0 | UNKNOWN_SEQ | ADDR=0x00000040 WRITE=0 DATA=0x03c10e4b RDATA=0x03c10e4b SLVERR=0
# UVM_INFO ../env/apb_scoreboard.sv(73) @ 13245000: uvm_test_top.env.scoreboard [apb_scoreboard] T#0 [READ PASS] ADDR=0x00000040 RDATA=0x03c10e4b
# UVM_INFO ../seq/apb_wr_rd_seq.sv(56) @ 13245000: uvm_test_top.env.agent.sequencer@@wr_rd_seq [apb_wr_rd_seq] READ : ADDR=0x00000040 RDATA=0x03c10e4b
# UVM_INFO ../env/apb_agent/apb_monitor.sv(81) @ 13345000: uvm_test_top.env.agent.monitor [apb_monitor] Collected: T#0 | UNKNOWN_SEQ | ADDR=0x0000038c WRITE=1 DATA=0x91ba48a3 RDATA=0x03c10e4b SLVERR=0
# UVM_INFO ../seq/apb_wr_rd_seq.sv(41) @ 13345000: uvm_test_top.env.agent.sequencer@@wr_rd_seq [apb_wr_rd_seq] WRITE: ADDR=0x0000038c DATA=0x91ba48a3
# UVM_INFO ../env/apb_agent/apb_monitor.sv(81) @ 13405000: uvm_test_top.env.agent.monitor [apb_monitor] Collected: T#0 | UNKNOWN_SEQ | ADDR=0x0000038c WRITE=0 DATA=0x91ba48a3 RDATA=0x91ba48a3 SLVERR=0
# UVM_INFO ../env/apb_scoreboard.sv(73) @ 13405000: uvm_test_top.env.scoreboard [apb_scoreboard] T#0 [READ PASS] ADDR=0x0000038c RDATA=0x91ba48a3
# UVM_INFO ../seq/apb_wr_rd_seq.sv(56) @ 13405000: uvm_test_top.env.agent.sequencer@@wr_rd_seq [apb_wr_rd_seq] READ : ADDR=0x0000038c RDATA=0x91ba48a3
# UVM_INFO ../env/apb_agent/apb_monitor.sv(81) @ 13505000: uvm_test_top.env.agent.monitor [apb_monitor] Collected: T#0 | UNKNOWN_SEQ | ADDR=0x00000310 WRITE=1 DATA=0xa1064da3 RDATA=0x91ba48a3 SLVERR=0
# UVM_INFO ../seq/apb_wr_rd_seq.sv(41) @ 13505000: uvm_test_top.env.agent.sequencer@@wr_rd_seq [apb_wr_rd_seq] WRITE: ADDR=0x00000310 DATA=0xa1064da3
# UVM_INFO ../env/apb_agent/apb_monitor.sv(81) @ 13545000: uvm_test_top.env.agent.monitor [apb_monitor] Collected: T#0 | UNKNOWN_SEQ | ADDR=0x00000310 WRITE=0 DATA=0xa1064da3 RDATA=0xa1064da3 SLVERR=0
# UVM_INFO ../env/apb_scoreboard.sv(73) @ 13545000: uvm_test_top.env.scoreboard [apb_scoreboard] T#0 [READ PASS] ADDR=0x00000310 RDATA=0xa1064da3
# UVM_INFO ../seq/apb_wr_rd_seq.sv(56) @ 13545000: uvm_test_top.env.agent.sequencer@@wr_rd_seq [apb_wr_rd_seq] READ : ADDR=0x00000310 RDATA=0xa1064da3
# UVM_INFO ../env/apb_agent/apb_monitor.sv(81) @ 13585000: uvm_test_top.env.agent.monitor [apb_monitor] Collected: T#0 | UNKNOWN_SEQ | ADDR=0x0000033c WRITE=1 DATA=0x4e170bac RDATA=0xa1064da3 SLVERR=0
# UVM_INFO ../seq/apb_wr_rd_seq.sv(41) @ 13585000: uvm_test_top.env.agent.sequencer@@wr_rd_seq [apb_wr_rd_seq] WRITE: ADDR=0x0000033c DATA=0x4e170bac
# UVM_INFO ../env/apb_agent/apb_monitor.sv(81) @ 13645000: uvm_test_top.env.agent.monitor [apb_monitor] Collected: T#0 | UNKNOWN_SEQ | ADDR=0x0000033c WRITE=0 DATA=0x4e170bac RDATA=0x4e170bac SLVERR=0
# UVM_INFO ../env/apb_scoreboard.sv(73) @ 13645000: uvm_test_top.env.scoreboard [apb_scoreboard] T#0 [READ PASS] ADDR=0x0000033c RDATA=0x4e170bac
# UVM_INFO ../seq/apb_wr_rd_seq.sv(56) @ 13645000: uvm_test_top.env.agent.sequencer@@wr_rd_seq [apb_wr_rd_seq] READ : ADDR=0x0000033c RDATA=0x4e170bac
# UVM_INFO ../env/apb_agent/apb_monitor.sv(81) @ 13695000: uvm_test_top.env.agent.monitor [apb_monitor] Collected: T#0 | UNKNOWN_SEQ | ADDR=0x000002b4 WRITE=1 DATA=0x13aa0584 RDATA=0x4e170bac SLVERR=0
# UVM_INFO ../seq/apb_wr_rd_seq.sv(41) @ 13695000: uvm_test_top.env.agent.sequencer@@wr_rd_seq [apb_wr_rd_seq] WRITE: ADDR=0x000002b4 DATA=0x13aa0584
# UVM_INFO ../env/apb_agent/apb_monitor.sv(81) @ 13745000: uvm_test_top.env.agent.monitor [apb_monitor] Collected: T#0 | UNKNOWN_SEQ | ADDR=0x000002b4 WRITE=0 DATA=0x13aa0584 RDATA=0x13aa0584 SLVERR=0
# UVM_INFO ../env/apb_scoreboard.sv(73) @ 13745000: uvm_test_top.env.scoreboard [apb_scoreboard] T#0 [READ PASS] ADDR=0x000002b4 RDATA=0x13aa0584
# UVM_INFO ../seq/apb_wr_rd_seq.sv(56) @ 13745000: uvm_test_top.env.agent.sequencer@@wr_rd_seq [apb_wr_rd_seq] READ : ADDR=0x000002b4 RDATA=0x13aa0584
# UVM_INFO ../env/apb_agent/apb_monitor.sv(81) @ 13785000: uvm_test_top.env.agent.monitor [apb_monitor] Collected: T#0 | UNKNOWN_SEQ | ADDR=0x00000390 WRITE=1 DATA=0x4fbd2332 RDATA=0x13aa0584 SLVERR=0
# UVM_INFO ../seq/apb_wr_rd_seq.sv(41) @ 13785000: uvm_test_top.env.agent.sequencer@@wr_rd_seq [apb_wr_rd_seq] WRITE: ADDR=0x00000390 DATA=0x4fbd2332
# UVM_INFO ../env/apb_agent/apb_monitor.sv(81) @ 13855000: uvm_test_top.env.agent.monitor [apb_monitor] Collected: T#0 | UNKNOWN_SEQ | ADDR=0x00000390 WRITE=0 DATA=0x4fbd2332 RDATA=0x4fbd2332 SLVERR=0
# UVM_INFO ../env/apb_scoreboard.sv(73) @ 13855000: uvm_test_top.env.scoreboard [apb_scoreboard] T#0 [READ PASS] ADDR=0x00000390 RDATA=0x4fbd2332
# UVM_INFO ../seq/apb_wr_rd_seq.sv(56) @ 13855000: uvm_test_top.env.agent.sequencer@@wr_rd_seq [apb_wr_rd_seq] READ : ADDR=0x00000390 RDATA=0x4fbd2332
# UVM_INFO ../env/apb_agent/apb_monitor.sv(81) @ 13905000: uvm_test_top.env.agent.monitor [apb_monitor] Collected: T#0 | UNKNOWN_SEQ | ADDR=0x000003a4 WRITE=1 DATA=0x456870e0 RDATA=0x4fbd2332 SLVERR=0
# UVM_INFO ../seq/apb_wr_rd_seq.sv(41) @ 13905000: uvm_test_top.env.agent.sequencer@@wr_rd_seq [apb_wr_rd_seq] WRITE: ADDR=0x000003a4 DATA=0x456870e0
# UVM_INFO ../env/apb_agent/apb_monitor.sv(81) @ 13945000: uvm_test_top.env.agent.monitor [apb_monitor] Collected: T#0 | UNKNOWN_SEQ | ADDR=0x000003a4 WRITE=0 DATA=0x456870e0 RDATA=0x456870e0 SLVERR=0
# UVM_INFO ../env/apb_scoreboard.sv(73) @ 13945000: uvm_test_top.env.scoreboard [apb_scoreboard] T#0 [READ PASS] ADDR=0x000003a4 RDATA=0x456870e0
# UVM_INFO ../seq/apb_wr_rd_seq.sv(56) @ 13945000: uvm_test_top.env.agent.sequencer@@wr_rd_seq [apb_wr_rd_seq] READ : ADDR=0x000003a4 RDATA=0x456870e0
# UVM_INFO ../env/apb_agent/apb_monitor.sv(81) @ 13985000: uvm_test_top.env.agent.monitor [apb_monitor] Collected: T#0 | UNKNOWN_SEQ | ADDR=0x00000380 WRITE=1 DATA=0x0abd4087 RDATA=0x456870e0 SLVERR=0
# UVM_INFO ../seq/apb_wr_rd_seq.sv(41) @ 13985000: uvm_test_top.env.agent.sequencer@@wr_rd_seq [apb_wr_rd_seq] WRITE: ADDR=0x00000380 DATA=0x0abd4087
# UVM_INFO ../env/apb_agent/apb_monitor.sv(81) @ 14045000: uvm_test_top.env.agent.monitor [apb_monitor] Collected: T#0 | UNKNOWN_SEQ | ADDR=0x00000380 WRITE=0 DATA=0x0abd4087 RDATA=0x0abd4087 SLVERR=0
# UVM_INFO ../env/apb_scoreboard.sv(73) @ 14045000: uvm_test_top.env.scoreboard [apb_scoreboard] T#0 [READ PASS] ADDR=0x00000380 RDATA=0x0abd4087
# UVM_INFO ../seq/apb_wr_rd_seq.sv(56) @ 14045000: uvm_test_top.env.agent.sequencer@@wr_rd_seq [apb_wr_rd_seq] READ : ADDR=0x00000380 RDATA=0x0abd4087
# UVM_INFO ../env/apb_agent/apb_monitor.sv(81) @ 14115000: uvm_test_top.env.agent.monitor [apb_monitor] Collected: T#0 | UNKNOWN_SEQ | ADDR=0x00000284 WRITE=1 DATA=0x46dc7f1d RDATA=0x0abd4087 SLVERR=0
# UVM_INFO ../seq/apb_wr_rd_seq.sv(41) @ 14115000: uvm_test_top.env.agent.sequencer@@wr_rd_seq [apb_wr_rd_seq] WRITE: ADDR=0x00000284 DATA=0x46dc7f1d
# UVM_INFO ../env/apb_agent/apb_monitor.sv(81) @ 14215000: uvm_test_top.env.agent.monitor [apb_monitor] Collected: T#0 | UNKNOWN_SEQ | ADDR=0x00000284 WRITE=0 DATA=0x46dc7f1d RDATA=0x46dc7f1d SLVERR=0
# UVM_INFO ../env/apb_scoreboard.sv(73) @ 14215000: uvm_test_top.env.scoreboard [apb_scoreboard] T#0 [READ PASS] ADDR=0x00000284 RDATA=0x46dc7f1d
# UVM_INFO ../seq/apb_wr_rd_seq.sv(56) @ 14215000: uvm_test_top.env.agent.sequencer@@wr_rd_seq [apb_wr_rd_seq] READ : ADDR=0x00000284 RDATA=0x46dc7f1d
# UVM_INFO ../env/apb_agent/apb_monitor.sv(81) @ 14285000: uvm_test_top.env.agent.monitor [apb_monitor] Collected: T#0 | UNKNOWN_SEQ | ADDR=0x00000270 WRITE=1 DATA=0x0e224564 RDATA=0x46dc7f1d SLVERR=0
# UVM_INFO ../seq/apb_wr_rd_seq.sv(41) @ 14285000: uvm_test_top.env.agent.sequencer@@wr_rd_seq [apb_wr_rd_seq] WRITE: ADDR=0x00000270 DATA=0x0e224564
# UVM_INFO ../env/apb_agent/apb_monitor.sv(81) @ 14365000: uvm_test_top.env.agent.monitor [apb_monitor] Collected: T#0 | UNKNOWN_SEQ | ADDR=0x00000270 WRITE=0 DATA=0x0e224564 RDATA=0x0e224564 SLVERR=0
# UVM_INFO ../env/apb_scoreboard.sv(73) @ 14365000: uvm_test_top.env.scoreboard [apb_scoreboard] T#0 [READ PASS] ADDR=0x00000270 RDATA=0x0e224564
# UVM_INFO ../seq/apb_wr_rd_seq.sv(56) @ 14365000: uvm_test_top.env.agent.sequencer@@wr_rd_seq [apb_wr_rd_seq] READ : ADDR=0x00000270 RDATA=0x0e224564
# UVM_INFO ../env/apb_agent/apb_monitor.sv(81) @ 14455000: uvm_test_top.env.agent.monitor [apb_monitor] Collected: T#0 | UNKNOWN_SEQ | ADDR=0x000003dc WRITE=1 DATA=0x946b2ce7 RDATA=0x0e224564 SLVERR=0
# UVM_INFO ../seq/apb_wr_rd_seq.sv(41) @ 14455000: uvm_test_top.env.agent.sequencer@@wr_rd_seq [apb_wr_rd_seq] WRITE: ADDR=0x000003dc DATA=0x946b2ce7
# UVM_INFO ../env/apb_agent/apb_monitor.sv(81) @ 14555000: uvm_test_top.env.agent.monitor [apb_monitor] Collected: T#0 | UNKNOWN_SEQ | ADDR=0x000003dc WRITE=0 DATA=0x946b2ce7 RDATA=0x946b2ce7 SLVERR=0
# UVM_INFO ../env/apb_scoreboard.sv(73) @ 14555000: uvm_test_top.env.scoreboard [apb_scoreboard] T#0 [READ PASS] ADDR=0x000003dc RDATA=0x946b2ce7
# UVM_INFO ../seq/apb_wr_rd_seq.sv(56) @ 14555000: uvm_test_top.env.agent.sequencer@@wr_rd_seq [apb_wr_rd_seq] READ : ADDR=0x000003dc RDATA=0x946b2ce7
# UVM_INFO ../env/apb_agent/apb_monitor.sv(81) @ 14645000: uvm_test_top.env.agent.monitor [apb_monitor] Collected: T#0 | UNKNOWN_SEQ | ADDR=0x00000368 WRITE=1 DATA=0xe482b318 RDATA=0x946b2ce7 SLVERR=0
# UVM_INFO ../seq/apb_wr_rd_seq.sv(41) @ 14645000: uvm_test_top.env.agent.sequencer@@wr_rd_seq [apb_wr_rd_seq] WRITE: ADDR=0x00000368 DATA=0xe482b318
# UVM_INFO ../env/apb_agent/apb_monitor.sv(81) @ 14685000: uvm_test_top.env.agent.monitor [apb_monitor] Collected: T#0 | UNKNOWN_SEQ | ADDR=0x00000368 WRITE=0 DATA=0xe482b318 RDATA=0xe482b318 SLVERR=0
# UVM_INFO ../env/apb_scoreboard.sv(73) @ 14685000: uvm_test_top.env.scoreboard [apb_scoreboard] T#0 [READ PASS] ADDR=0x00000368 RDATA=0xe482b318
# UVM_INFO ../seq/apb_wr_rd_seq.sv(56) @ 14685000: uvm_test_top.env.agent.sequencer@@wr_rd_seq [apb_wr_rd_seq] READ : ADDR=0x00000368 RDATA=0xe482b318
# UVM_INFO ../env/apb_agent/apb_monitor.sv(81) @ 14795000: uvm_test_top.env.agent.monitor [apb_monitor] Collected: T#0 | UNKNOWN_SEQ | ADDR=0x00000158 WRITE=1 DATA=0x0352367e RDATA=0xe482b318 SLVERR=0
# UVM_INFO ../seq/apb_wr_rd_seq.sv(41) @ 14795000: uvm_test_top.env.agent.sequencer@@wr_rd_seq [apb_wr_rd_seq] WRITE: ADDR=0x00000158 DATA=0x0352367e
# UVM_INFO ../env/apb_agent/apb_monitor.sv(81) @ 14905000: uvm_test_top.env.agent.monitor [apb_monitor] Collected: T#0 | UNKNOWN_SEQ | ADDR=0x00000158 WRITE=0 DATA=0x0352367e RDATA=0x0352367e SLVERR=0
# UVM_INFO ../env/apb_scoreboard.sv(73) @ 14905000: uvm_test_top.env.scoreboard [apb_scoreboard] T#0 [READ PASS] ADDR=0x00000158 RDATA=0x0352367e
# UVM_INFO ../seq/apb_wr_rd_seq.sv(56) @ 14905000: uvm_test_top.env.agent.sequencer@@wr_rd_seq [apb_wr_rd_seq] READ : ADDR=0x00000158 RDATA=0x0352367e
# UVM_INFO ../env/apb_agent/apb_monitor.sv(81) @ 15005000: uvm_test_top.env.agent.monitor [apb_monitor] Collected: T#0 | UNKNOWN_SEQ | ADDR=0x000000b0 WRITE=1 DATA=0x443a5d80 RDATA=0x0352367e SLVERR=0
# UVM_INFO ../seq/apb_wr_rd_seq.sv(41) @ 15005000: uvm_test_top.env.agent.sequencer@@wr_rd_seq [apb_wr_rd_seq] WRITE: ADDR=0x000000b0 DATA=0x443a5d80
# UVM_INFO ../env/apb_agent/apb_monitor.sv(81) @ 15095000: uvm_test_top.env.agent.monitor [apb_monitor] Collected: T#0 | UNKNOWN_SEQ | ADDR=0x000000b0 WRITE=0 DATA=0x443a5d80 RDATA=0x443a5d80 SLVERR=0
# UVM_INFO ../env/apb_scoreboard.sv(73) @ 15095000: uvm_test_top.env.scoreboard [apb_scoreboard] T#0 [READ PASS] ADDR=0x000000b0 RDATA=0x443a5d80
# UVM_INFO ../seq/apb_wr_rd_seq.sv(56) @ 15095000: uvm_test_top.env.agent.sequencer@@wr_rd_seq [apb_wr_rd_seq] READ : ADDR=0x000000b0 RDATA=0x443a5d80
# UVM_INFO ../env/apb_agent/apb_monitor.sv(81) @ 15175000: uvm_test_top.env.agent.monitor [apb_monitor] Collected: T#0 | UNKNOWN_SEQ | ADDR=0x00000338 WRITE=1 DATA=0xd5d0de52 RDATA=0x443a5d80 SLVERR=0
# UVM_INFO ../seq/apb_wr_rd_seq.sv(41) @ 15175000: uvm_test_top.env.agent.sequencer@@wr_rd_seq [apb_wr_rd_seq] WRITE: ADDR=0x00000338 DATA=0xd5d0de52
# UVM_INFO ../env/apb_agent/apb_monitor.sv(81) @ 15285000: uvm_test_top.env.agent.monitor [apb_monitor] Collected: T#0 | UNKNOWN_SEQ | ADDR=0x00000338 WRITE=0 DATA=0xd5d0de52 RDATA=0xd5d0de52 SLVERR=0
# UVM_INFO ../env/apb_scoreboard.sv(73) @ 15285000: uvm_test_top.env.scoreboard [apb_scoreboard] T#0 [READ PASS] ADDR=0x00000338 RDATA=0xd5d0de52
# UVM_INFO ../seq/apb_wr_rd_seq.sv(56) @ 15285000: uvm_test_top.env.agent.sequencer@@wr_rd_seq [apb_wr_rd_seq] READ : ADDR=0x00000338 RDATA=0xd5d0de52
# UVM_INFO ../env/apb_agent/apb_monitor.sv(81) @ 15325000: uvm_test_top.env.agent.monitor [apb_monitor] Collected: T#0 | UNKNOWN_SEQ | ADDR=0x000001b8 WRITE=1 DATA=0x6feef636 RDATA=0xd5d0de52 SLVERR=0
# UVM_INFO ../seq/apb_wr_rd_seq.sv(41) @ 15325000: uvm_test_top.env.agent.sequencer@@wr_rd_seq [apb_wr_rd_seq] WRITE: ADDR=0x000001b8 DATA=0x6feef636
# UVM_INFO ../env/apb_agent/apb_monitor.sv(81) @ 15395000: uvm_test_top.env.agent.monitor [apb_monitor] Collected: T#0 | UNKNOWN_SEQ | ADDR=0x000001b8 WRITE=0 DATA=0x6feef636 RDATA=0x6feef636 SLVERR=0
# UVM_INFO ../env/apb_scoreboard.sv(73) @ 15395000: uvm_test_top.env.scoreboard [apb_scoreboard] T#0 [READ PASS] ADDR=0x000001b8 RDATA=0x6feef636
# UVM_INFO ../seq/apb_wr_rd_seq.sv(56) @ 15395000: uvm_test_top.env.agent.sequencer@@wr_rd_seq [apb_wr_rd_seq] READ : ADDR=0x000001b8 RDATA=0x6feef636
# UVM_INFO ../env/apb_agent/apb_monitor.sv(81) @ 15475000: uvm_test_top.env.agent.monitor [apb_monitor] Collected: T#0 | UNKNOWN_SEQ | ADDR=0x0000032c WRITE=1 DATA=0xddc9fd35 RDATA=0x6feef636 SLVERR=0
# UVM_INFO ../seq/apb_wr_rd_seq.sv(41) @ 15475000: uvm_test_top.env.agent.sequencer@@wr_rd_seq [apb_wr_rd_seq] WRITE: ADDR=0x0000032c DATA=0xddc9fd35
# UVM_INFO ../env/apb_agent/apb_monitor.sv(81) @ 15575000: uvm_test_top.env.agent.monitor [apb_monitor] Collected: T#0 | UNKNOWN_SEQ | ADDR=0x0000032c WRITE=0 DATA=0xddc9fd35 RDATA=0xddc9fd35 SLVERR=0
# UVM_INFO ../env/apb_scoreboard.sv(73) @ 15575000: uvm_test_top.env.scoreboard [apb_scoreboard] T#0 [READ PASS] ADDR=0x0000032c RDATA=0xddc9fd35
# UVM_INFO ../seq/apb_wr_rd_seq.sv(56) @ 15575000: uvm_test_top.env.agent.sequencer@@wr_rd_seq [apb_wr_rd_seq] READ : ADDR=0x0000032c RDATA=0xddc9fd35
# UVM_INFO ../env/apb_agent/apb_monitor.sv(81) @ 15675000: uvm_test_top.env.agent.monitor [apb_monitor] Collected: T#0 | UNKNOWN_SEQ | ADDR=0x000001f0 WRITE=1 DATA=0xc3e25352 RDATA=0xddc9fd35 SLVERR=0
# UVM_INFO ../seq/apb_wr_rd_seq.sv(41) @ 15675000: uvm_test_top.env.agent.sequencer@@wr_rd_seq [apb_wr_rd_seq] WRITE: ADDR=0x000001f0 DATA=0xc3e25352
# UVM_INFO ../env/apb_agent/apb_monitor.sv(81) @ 15785000: uvm_test_top.env.agent.monitor [apb_monitor] Collected: T#0 | UNKNOWN_SEQ | ADDR=0x000001f0 WRITE=0 DATA=0xc3e25352 RDATA=0xc3e25352 SLVERR=0
# UVM_INFO ../env/apb_scoreboard.sv(73) @ 15785000: uvm_test_top.env.scoreboard [apb_scoreboard] T#0 [READ PASS] ADDR=0x000001f0 RDATA=0xc3e25352
# UVM_INFO ../seq/apb_wr_rd_seq.sv(56) @ 15785000: uvm_test_top.env.agent.sequencer@@wr_rd_seq [apb_wr_rd_seq] READ : ADDR=0x000001f0 RDATA=0xc3e25352
# UVM_INFO ../env/apb_agent/apb_monitor.sv(81) @ 15825000: uvm_test_top.env.agent.monitor [apb_monitor] Collected: T#0 | UNKNOWN_SEQ | ADDR=0x00000148 WRITE=1 DATA=0x02becd7d RDATA=0xc3e25352 SLVERR=0
# UVM_INFO ../seq/apb_wr_rd_seq.sv(41) @ 15825000: uvm_test_top.env.agent.sequencer@@wr_rd_seq [apb_wr_rd_seq] WRITE: ADDR=0x00000148 DATA=0x02becd7d
# UVM_INFO ../env/apb_agent/apb_monitor.sv(81) @ 15885000: uvm_test_top.env.agent.monitor [apb_monitor] Collected: T#0 | UNKNOWN_SEQ | ADDR=0x00000148 WRITE=0 DATA=0x02becd7d RDATA=0x02becd7d SLVERR=0
# UVM_INFO ../env/apb_scoreboard.sv(73) @ 15885000: uvm_test_top.env.scoreboard [apb_scoreboard] T#0 [READ PASS] ADDR=0x00000148 RDATA=0x02becd7d
# UVM_INFO ../seq/apb_wr_rd_seq.sv(56) @ 15885000: uvm_test_top.env.agent.sequencer@@wr_rd_seq [apb_wr_rd_seq] READ : ADDR=0x00000148 RDATA=0x02becd7d
# UVM_INFO ../env/apb_agent/apb_monitor.sv(81) @ 15945000: uvm_test_top.env.agent.monitor [apb_monitor] Collected: T#0 | UNKNOWN_SEQ | ADDR=0x00000264 WRITE=1 DATA=0x637c808c RDATA=0x02becd7d SLVERR=0
# UVM_INFO ../seq/apb_wr_rd_seq.sv(41) @ 15945000: uvm_test_top.env.agent.sequencer@@wr_rd_seq [apb_wr_rd_seq] WRITE: ADDR=0x00000264 DATA=0x637c808c
# UVM_INFO ../env/apb_agent/apb_monitor.sv(81) @ 16025000: uvm_test_top.env.agent.monitor [apb_monitor] Collected: T#0 | UNKNOWN_SEQ | ADDR=0x00000264 WRITE=0 DATA=0x637c808c RDATA=0x637c808c SLVERR=0
# UVM_INFO ../env/apb_scoreboard.sv(73) @ 16025000: uvm_test_top.env.scoreboard [apb_scoreboard] T#0 [READ PASS] ADDR=0x00000264 RDATA=0x637c808c
# UVM_INFO ../seq/apb_wr_rd_seq.sv(56) @ 16025000: uvm_test_top.env.agent.sequencer@@wr_rd_seq [apb_wr_rd_seq] READ : ADDR=0x00000264 RDATA=0x637c808c
# UVM_INFO ../env/apb_agent/apb_monitor.sv(81) @ 16125000: uvm_test_top.env.agent.monitor [apb_monitor] Collected: T#0 | UNKNOWN_SEQ | ADDR=0x00000360 WRITE=1 DATA=0x2fe7d554 RDATA=0x637c808c SLVERR=0
# UVM_INFO ../seq/apb_wr_rd_seq.sv(41) @ 16125000: uvm_test_top.env.agent.sequencer@@wr_rd_seq [apb_wr_rd_seq] WRITE: ADDR=0x00000360 DATA=0x2fe7d554
# UVM_INFO ../env/apb_agent/apb_monitor.sv(81) @ 16205000: uvm_test_top.env.agent.monitor [apb_monitor] Collected: T#0 | UNKNOWN_SEQ | ADDR=0x00000360 WRITE=0 DATA=0x2fe7d554 RDATA=0x2fe7d554 SLVERR=0
# UVM_INFO ../env/apb_scoreboard.sv(73) @ 16205000: uvm_test_top.env.scoreboard [apb_scoreboard] T#0 [READ PASS] ADDR=0x00000360 RDATA=0x2fe7d554
# UVM_INFO ../seq/apb_wr_rd_seq.sv(56) @ 16205000: uvm_test_top.env.agent.sequencer@@wr_rd_seq [apb_wr_rd_seq] READ : ADDR=0x00000360 RDATA=0x2fe7d554
# UVM_INFO ../env/apb_agent/apb_monitor.sv(81) @ 16295000: uvm_test_top.env.agent.monitor [apb_monitor] Collected: T#0 | UNKNOWN_SEQ | ADDR=0x00000268 WRITE=1 DATA=0xf95b6d07 RDATA=0x2fe7d554 SLVERR=0
# UVM_INFO ../seq/apb_wr_rd_seq.sv(41) @ 16295000: uvm_test_top.env.agent.sequencer@@wr_rd_seq [apb_wr_rd_seq] WRITE: ADDR=0x00000268 DATA=0xf95b6d07
# UVM_INFO ../env/apb_agent/apb_monitor.sv(81) @ 16395000: uvm_test_top.env.agent.monitor [apb_monitor] Collected: T#0 | UNKNOWN_SEQ | ADDR=0x00000268 WRITE=0 DATA=0xf95b6d07 RDATA=0xf95b6d07 SLVERR=0
# UVM_INFO ../env/apb_scoreboard.sv(73) @ 16395000: uvm_test_top.env.scoreboard [apb_scoreboard] T#0 [READ PASS] ADDR=0x00000268 RDATA=0xf95b6d07
# UVM_INFO ../seq/apb_wr_rd_seq.sv(56) @ 16395000: uvm_test_top.env.agent.sequencer@@wr_rd_seq [apb_wr_rd_seq] READ : ADDR=0x00000268 RDATA=0xf95b6d07
# UVM_INFO ../env/apb_agent/apb_monitor.sv(81) @ 16475000: uvm_test_top.env.agent.monitor [apb_monitor] Collected: T#0 | UNKNOWN_SEQ | ADDR=0x0000018c WRITE=1 DATA=0xeb4a6175 RDATA=0xf95b6d07 SLVERR=0
# UVM_INFO ../seq/apb_wr_rd_seq.sv(41) @ 16475000: uvm_test_top.env.agent.sequencer@@wr_rd_seq [apb_wr_rd_seq] WRITE: ADDR=0x0000018c DATA=0xeb4a6175
# UVM_INFO ../env/apb_agent/apb_monitor.sv(81) @ 16545000: uvm_test_top.env.agent.monitor [apb_monitor] Collected: T#0 | UNKNOWN_SEQ | ADDR=0x0000018c WRITE=0 DATA=0xeb4a6175 RDATA=0xeb4a6175 SLVERR=0
# UVM_INFO ../env/apb_scoreboard.sv(73) @ 16545000: uvm_test_top.env.scoreboard [apb_scoreboard] T#0 [READ PASS] ADDR=0x0000018c RDATA=0xeb4a6175
# UVM_INFO ../seq/apb_wr_rd_seq.sv(56) @ 16545000: uvm_test_top.env.agent.sequencer@@wr_rd_seq [apb_wr_rd_seq] READ : ADDR=0x0000018c RDATA=0xeb4a6175
