# vsim -c tb_top -do "run -all; quit -f" 
# Start time: 09:09:13 on May 15,2026
# ** Note: (vsim-3813) Design is being optimized due to module recompilation...
# //  Questa Sim-64
# //  Version 10.6b linux_x86_64 May 25 2017
# //
# //  Copyright 1991-2017 Mentor Graphics Corporation
# //  All Rights Reserved.
# //
# //  QuestaSim and its associated documentation contain trade
# //  secrets and commercial or financial information that are the property of
# //  Mentor Graphics Corporation and are privileged, confidential,
# //  and exempt from disclosure under the Freedom of Information Act,
# //  5 U.S.C. Section 552. Furthermore, this information
# //  is prohibited from disclosure under the Trade Secrets Act,
# //  18 U.S.C. Section 1905.
# //
# Loading sv_std.std
# Loading work.apb_if(fast)
# Loading mtiUvm.uvm_pkg
# Loading work.apb_pkg(fast)
# Loading work.apb_if_sv_unit(fast)
# Loading work.tb_top(fast)
# Loading work.apb_if(fast)
# Loading work.apb_sram(fast)
# Loading mtiUvm.questa_uvm_pkg(fast)
# Loading /cadtools/mentor/Questa_10.6b/questasim/uvm-1.1d/linux_x86_64/uvm_dpi.so
# run -all
# ----------------------------------------------------------------
# UVM-1.1d
# (C) 2007-2013 Mentor Graphics Corporation
# (C) 2007-2013 Cadence Design Systems, Inc.
# (C) 2006-2013 Synopsys, Inc.
# (C) 2011-2013 Cypress Semiconductor Corp.
# ----------------------------------------------------------------
# 
#   ***********       IMPORTANT RELEASE NOTES         ************
# 
#   You are using a version of the UVM library that has been compiled
#   with `UVM_NO_DEPRECATED undefined.
#   See http://www.eda.org/svdb/view.php?id=3313 for more details.
# 
#   You are using a version of the UVM library that has been compiled
#   with `UVM_OBJECT_MUST_HAVE_CONSTRUCTOR undefined.
#   See http://www.eda.org/svdb/view.php?id=3770 for more details.
# 
#       (Specify +UVM_NO_RELNOTES to turn off this notice)
# 
# UVM_INFO verilog_src/questa_uvm_pkg-1.2/src/questa_uvm_pkg.sv(215) @ 0: reporter [Questa UVM] QUESTA_UVM-1.2.3
# UVM_INFO verilog_src/questa_uvm_pkg-1.2/src/questa_uvm_pkg.sv(217) @ 0: reporter [Questa UVM]  questa_uvm::init(+struct)
# UVM_INFO ../tb/tb_top.sv(48) @ 0: reporter [TB_TOP] Starting APB UVM Testbench
# UVM_INFO @ 0: reporter [RNTST] Running test apb_base_test...
# UVM_INFO ../test/apb_base_test.sv(33) @ 0: uvm_test_top [apb_base_test] Build phase completed
# UVM_INFO ../env/apb_env.sv(36) @ 0: uvm_test_top.env [apb_env] Build phase completed
# UVM_INFO ../env/apb_agent/apb_agent.sv(43) @ 0: uvm_test_top.env.agent [AGT] No is_active config, defaulting to UVM_ACTIVE
# UVM_INFO ../env/apb_env.sv(47) @ 0: uvm_test_top.env [apb_env] Connect phase completed - Monitor connected to Scoreboard
# UVM_INFO ../env/apb_agent/apb_agent.sv(72) @ 0: uvm_test_top.env.agent [apb_agent] Agent Mode:  ACTIVE
# UVM_INFO ../test/apb_base_test.sv(40) @ 0: uvm_test_top [apb_base_test] ==============START APB TEST =================
# UVM_INFO ../env/apb_agent/apb_monitor.sv(45) @ 35000: uvm_test_top.env.agent.monitor [apb_monitor] Monitor started after reset
# UVM_INFO ../env/apb_agent/apb_monitor.sv(81) @ 135000: uvm_test_top.env.agent.monitor [apb_monitor] Collected: ADDR= 0x000002d0 WRITE= 1 DATA= 0x339f0009 WAIT= 0 SLVERR= 0 RDATA= 0x00000000
# UVM_INFO ../seq/apb_write_seq.sv(33) @ 135000: uvm_test_top.env.agent.sequencer@@write_seq [apb_write_seq] TASK WRITE: Sent Write: ADDR = 0x000002d0, DATA = 0x339f0009
# UVM_INFO ../env/apb_agent/apb_monitor.sv(81) @ 175000: uvm_test_top.env.agent.monitor [apb_monitor] Collected: ADDR= 0x000003c0 WRITE= 1 DATA= 0x75a75a7f WAIT= 0 SLVERR= 0 RDATA= 0x00000000
# UVM_INFO ../seq/apb_write_seq.sv(33) @ 175000: uvm_test_top.env.agent.sequencer@@write_seq [apb_write_seq] TASK WRITE: Sent Write: ADDR = 0x000003c0, DATA = 0x75a75a7f
# UVM_INFO ../env/apb_agent/apb_monitor.sv(81) @ 215000: uvm_test_top.env.agent.monitor [apb_monitor] Collected: ADDR= 0x0000005c WRITE= 1 DATA= 0x444da393 WAIT= 0 SLVERR= 0 RDATA= 0x00000000
# UVM_INFO ../seq/apb_write_seq.sv(33) @ 215000: uvm_test_top.env.agent.sequencer@@write_seq [apb_write_seq] TASK WRITE: Sent Write: ADDR = 0x0000005c, DATA = 0x444da393
# UVM_INFO ../env/apb_agent/apb_monitor.sv(81) @ 325000: uvm_test_top.env.agent.monitor [apb_monitor] Collected: ADDR= 0x000001c4 WRITE= 1 DATA= 0xe81fe2f0 WAIT= 0 SLVERR= 0 RDATA= 0x00000000
# UVM_INFO ../seq/apb_write_seq.sv(33) @ 325000: uvm_test_top.env.agent.sequencer@@write_seq [apb_write_seq] TASK WRITE: Sent Write: ADDR = 0x000001c4, DATA = 0xe81fe2f0
# UVM_INFO ../env/apb_agent/apb_monitor.sv(81) @ 425000: uvm_test_top.env.agent.monitor [apb_monitor] Collected: ADDR= 0x00000080 WRITE= 1 DATA= 0xd2302f95 WAIT= 0 SLVERR= 0 RDATA= 0x00000000
# UVM_INFO ../seq/apb_write_seq.sv(33) @ 425000: uvm_test_top.env.agent.sequencer@@write_seq [apb_write_seq] TASK WRITE: Sent Write: ADDR = 0x00000080, DATA = 0xd2302f95
# UVM_INFO ../env/apb_agent/apb_monitor.sv(81) @ 485000: uvm_test_top.env.agent.monitor [apb_monitor] Collected: ADDR= 0x000002c8 WRITE= 1 DATA= 0xde63b8e2 WAIT= 0 SLVERR= 0 RDATA= 0x00000000
# UVM_INFO ../seq/apb_write_seq.sv(33) @ 485000: uvm_test_top.env.agent.sequencer@@write_seq [apb_write_seq] TASK WRITE: Sent Write: ADDR = 0x000002c8, DATA = 0xde63b8e2
# UVM_INFO ../env/apb_agent/apb_monitor.sv(81) @ 535000: uvm_test_top.env.agent.monitor [apb_monitor] Collected: ADDR= 0x00000030 WRITE= 1 DATA= 0x489475be WAIT= 0 SLVERR= 0 RDATA= 0x00000000
# UVM_INFO ../seq/apb_write_seq.sv(33) @ 535000: uvm_test_top.env.agent.sequencer@@write_seq [apb_write_seq] TASK WRITE: Sent Write: ADDR = 0x00000030, DATA = 0x489475be
# UVM_INFO ../env/apb_agent/apb_monitor.sv(81) @ 615000: uvm_test_top.env.agent.monitor [apb_monitor] Collected: ADDR= 0x0000000c WRITE= 1 DATA= 0x6308461d WAIT= 0 SLVERR= 0 RDATA= 0x00000000
# UVM_INFO ../seq/apb_write_seq.sv(33) @ 615000: uvm_test_top.env.agent.sequencer@@write_seq [apb_write_seq] TASK WRITE: Sent Write: ADDR = 0x0000000c, DATA = 0x6308461d
# UVM_INFO ../env/apb_agent/apb_monitor.sv(81) @ 685000: uvm_test_top.env.agent.monitor [apb_monitor] Collected: ADDR= 0x0000003c WRITE= 1 DATA= 0x49709113 WAIT= 0 SLVERR= 0 RDATA= 0x00000000
# UVM_INFO ../seq/apb_write_seq.sv(33) @ 685000: uvm_test_top.env.agent.sequencer@@write_seq [apb_write_seq] TASK WRITE: Sent Write: ADDR = 0x0000003c, DATA = 0x49709113
# UVM_INFO ../env/apb_agent/apb_monitor.sv(81) @ 725000: uvm_test_top.env.agent.monitor [apb_monitor] Collected: ADDR= 0x000001a8 WRITE= 1 DATA= 0xeb7683bb WAIT= 0 SLVERR= 0 RDATA= 0x00000000
# UVM_INFO ../seq/apb_write_seq.sv(33) @ 725000: uvm_test_top.env.agent.sequencer@@write_seq [apb_write_seq] TASK WRITE: Sent Write: ADDR = 0x000001a8, DATA = 0xeb7683bb
# UVM_INFO ../env/apb_agent/apb_monitor.sv(81) @ 785000: uvm_test_top.env.agent.monitor [apb_monitor] Collected: ADDR= 0x0000005c WRITE= 1 DATA= 0xb909731c WAIT= 0 SLVERR= 0 RDATA= 0x00000000
# UVM_INFO ../seq/apb_write_seq.sv(33) @ 785000: uvm_test_top.env.agent.sequencer@@write_seq [apb_write_seq] TASK WRITE: Sent Write: ADDR = 0x0000005c, DATA = 0xb909731c
# UVM_INFO ../env/apb_agent/apb_monitor.sv(81) @ 845000: uvm_test_top.env.agent.monitor [apb_monitor] Collected: ADDR= 0x000003f0 WRITE= 1 DATA= 0x47c0ca67 WAIT= 0 SLVERR= 0 RDATA= 0x00000000
# UVM_INFO ../seq/apb_write_seq.sv(33) @ 845000: uvm_test_top.env.agent.sequencer@@write_seq [apb_write_seq] TASK WRITE: Sent Write: ADDR = 0x000003f0, DATA = 0x47c0ca67
# UVM_INFO ../env/apb_agent/apb_monitor.sv(81) @ 905000: uvm_test_top.env.agent.monitor [apb_monitor] Collected: ADDR= 0x000003c0 WRITE= 1 DATA= 0xa42408e4 WAIT= 0 SLVERR= 0 RDATA= 0x00000000
# UVM_INFO ../seq/apb_write_seq.sv(33) @ 905000: uvm_test_top.env.agent.sequencer@@write_seq [apb_write_seq] TASK WRITE: Sent Write: ADDR = 0x000003c0, DATA = 0xa42408e4
# UVM_INFO ../env/apb_agent/apb_monitor.sv(81) @ 955000: uvm_test_top.env.agent.monitor [apb_monitor] Collected: ADDR= 0x000001c4 WRITE= 1 DATA= 0x86fbff3b WAIT= 0 SLVERR= 0 RDATA= 0x00000000
# UVM_INFO ../seq/apb_write_seq.sv(33) @ 955000: uvm_test_top.env.agent.sequencer@@write_seq [apb_write_seq] TASK WRITE: Sent Write: ADDR = 0x000001c4, DATA = 0x86fbff3b
# UVM_INFO ../env/apb_agent/apb_monitor.sv(81) @ 995000: uvm_test_top.env.agent.monitor [apb_monitor] Collected: ADDR= 0x00000034 WRITE= 1 DATA= 0x206e6267 WAIT= 0 SLVERR= 0 RDATA= 0x00000000
# UVM_INFO ../seq/apb_write_seq.sv(33) @ 995000: uvm_test_top.env.agent.sequencer@@write_seq [apb_write_seq] TASK WRITE: Sent Write: ADDR = 0x00000034, DATA = 0x206e6267
# UVM_INFO ../env/apb_agent/apb_monitor.sv(81) @ 1085000: uvm_test_top.env.agent.monitor [apb_monitor] Collected: ADDR= 0x000003b8 WRITE= 1 DATA= 0xc2d15aac WAIT= 0 SLVERR= 0 RDATA= 0x00000000
# UVM_INFO ../seq/apb_write_seq.sv(33) @ 1085000: uvm_test_top.env.agent.sequencer@@write_seq [apb_write_seq] TASK WRITE: Sent Write: ADDR = 0x000003b8, DATA = 0xc2d15aac
# UVM_INFO ../env/apb_agent/apb_monitor.sv(81) @ 1125000: uvm_test_top.env.agent.monitor [apb_monitor] Collected: ADDR= 0x00000298 WRITE= 1 DATA= 0xad0bcb59 WAIT= 0 SLVERR= 0 RDATA= 0x00000000
# UVM_INFO ../seq/apb_write_seq.sv(33) @ 1125000: uvm_test_top.env.agent.sequencer@@write_seq [apb_write_seq] TASK WRITE: Sent Write: ADDR = 0x00000298, DATA = 0xad0bcb59
# UVM_INFO ../env/apb_agent/apb_monitor.sv(81) @ 1215000: uvm_test_top.env.agent.monitor [apb_monitor] Collected: ADDR= 0x00000254 WRITE= 1 DATA= 0x9b9a5af9 WAIT= 0 SLVERR= 0 RDATA= 0x00000000
# UVM_INFO ../seq/apb_write_seq.sv(33) @ 1215000: uvm_test_top.env.agent.sequencer@@write_seq [apb_write_seq] TASK WRITE: Sent Write: ADDR = 0x00000254, DATA = 0x9b9a5af9
# UVM_INFO ../env/apb_agent/apb_monitor.sv(81) @ 1285000: uvm_test_top.env.agent.monitor [apb_monitor] Collected: ADDR= 0x00000354 WRITE= 1 DATA= 0x5cc11002 WAIT= 0 SLVERR= 0 RDATA= 0x00000000
# UVM_INFO ../seq/apb_write_seq.sv(33) @ 1285000: uvm_test_top.env.agent.sequencer@@write_seq [apb_write_seq] TASK WRITE: Sent Write: ADDR = 0x00000354, DATA = 0x5cc11002
# UVM_INFO ../env/apb_agent/apb_monitor.sv(81) @ 1365000: uvm_test_top.env.agent.monitor [apb_monitor] Collected: ADDR= 0x00000190 WRITE= 1 DATA= 0xf82b2652 WAIT= 0 SLVERR= 0 RDATA= 0x00000000
# UVM_INFO ../seq/apb_write_seq.sv(33) @ 1365000: uvm_test_top.env.agent.sequencer@@write_seq [apb_write_seq] TASK WRITE: Sent Write: ADDR = 0x00000190, DATA = 0xf82b2652
# UVM_INFO ../env/apb_agent/apb_monitor.sv(81) @ 1415000: uvm_test_top.env.agent.monitor [apb_monitor] Collected: ADDR= 0x000003ac WRITE= 0 DATA= 0x00000000 WAIT= 0 SLVERR= 0 RDATA= 0x00000000
# UVM_ERROR ../env/apb_scoreboard.sv(69) @ 1415000: uvm_test_top.env.scoreboard [apb_scoreboard] Read FAIL! ADDR=0x000003ac | Exp=0xdeadbeef | Act=0x00000000
# UVM_INFO ../seq/apb_read_seq.sv(37) @ 1415000: uvm_test_top.env.agent.sequencer@@read_seq [apb_read_seq] TASK READ DATA : Sent Read: ADDR=0x000003ac
# UVM_INFO ../env/apb_agent/apb_monitor.sv(81) @ 1455000: uvm_test_top.env.agent.monitor [apb_monitor] Collected: ADDR= 0x000003a4 WRITE= 0 DATA= 0x00000000 WAIT= 0 SLVERR= 0 RDATA= 0x00000000
# UVM_ERROR ../env/apb_scoreboard.sv(69) @ 1455000: uvm_test_top.env.scoreboard [apb_scoreboard] Read FAIL! ADDR=0x000003a4 | Exp=0xdeadbeef | Act=0x00000000
# UVM_INFO ../seq/apb_read_seq.sv(37) @ 1455000: uvm_test_top.env.agent.sequencer@@read_seq [apb_read_seq] TASK READ DATA : Sent Read: ADDR=0x000003a4
# UVM_INFO ../env/apb_agent/apb_monitor.sv(81) @ 1505000: uvm_test_top.env.agent.monitor [apb_monitor] Collected: ADDR= 0x00000040 WRITE= 0 DATA= 0x00000000 WAIT= 0 SLVERR= 0 RDATA= 0x00000000
# UVM_ERROR ../env/apb_scoreboard.sv(69) @ 1505000: uvm_test_top.env.scoreboard [apb_scoreboard] Read FAIL! ADDR=0x00000040 | Exp=0xdeadbeef | Act=0x00000000
# UVM_INFO ../seq/apb_read_seq.sv(37) @ 1505000: uvm_test_top.env.agent.sequencer@@read_seq [apb_read_seq] TASK READ DATA : Sent Read: ADDR=0x00000040
# UVM_INFO ../env/apb_agent/apb_monitor.sv(81) @ 1595000: uvm_test_top.env.agent.monitor [apb_monitor] Collected: ADDR= 0x00000328 WRITE= 0 DATA= 0x00000000 WAIT= 0 SLVERR= 0 RDATA= 0x00000000
# UVM_ERROR ../env/apb_scoreboard.sv(69) @ 1595000: uvm_test_top.env.scoreboard [apb_scoreboard] Read FAIL! ADDR=0x00000328 | Exp=0xdeadbeef | Act=0x00000000
# UVM_INFO ../seq/apb_read_seq.sv(37) @ 1595000: uvm_test_top.env.agent.sequencer@@read_seq [apb_read_seq] TASK READ DATA : Sent Read: ADDR=0x00000328
# UVM_INFO ../env/apb_agent/apb_monitor.sv(81) @ 1635000: uvm_test_top.env.agent.monitor [apb_monitor] Collected: ADDR= 0x000000c8 WRITE= 0 DATA= 0x00000000 WAIT= 0 SLVERR= 0 RDATA= 0x00000000
# UVM_ERROR ../env/apb_scoreboard.sv(69) @ 1635000: uvm_test_top.env.scoreboard [apb_scoreboard] Read FAIL! ADDR=0x000000c8 | Exp=0xdeadbeef | Act=0x00000000
# UVM_INFO ../seq/apb_read_seq.sv(37) @ 1635000: uvm_test_top.env.agent.sequencer@@read_seq [apb_read_seq] TASK READ DATA : Sent Read: ADDR=0x000000c8
# UVM_INFO ../env/apb_agent/apb_monitor.sv(81) @ 1695000: uvm_test_top.env.agent.monitor [apb_monitor] Collected: ADDR= 0x0000024c WRITE= 0 DATA= 0x00000000 WAIT= 0 SLVERR= 0 RDATA= 0x00000000
# UVM_ERROR ../env/apb_scoreboard.sv(69) @ 1695000: uvm_test_top.env.scoreboard [apb_scoreboard] Read FAIL! ADDR=0x0000024c | Exp=0xdeadbeef | Act=0x00000000
# UVM_INFO ../seq/apb_read_seq.sv(37) @ 1695000: uvm_test_top.env.agent.sequencer@@read_seq [apb_read_seq] TASK READ DATA : Sent Read: ADDR=0x0000024c
# UVM_INFO ../env/apb_agent/apb_monitor.sv(81) @ 1735000: uvm_test_top.env.agent.monitor [apb_monitor] Collected: ADDR= 0x0000033c WRITE= 0 DATA= 0x00000000 WAIT= 0 SLVERR= 0 RDATA= 0x00000000
# UVM_ERROR ../env/apb_scoreboard.sv(69) @ 1735000: uvm_test_top.env.scoreboard [apb_scoreboard] Read FAIL! ADDR=0x0000033c | Exp=0xdeadbeef | Act=0x00000000
# UVM_INFO ../seq/apb_read_seq.sv(37) @ 1735000: uvm_test_top.env.agent.sequencer@@read_seq [apb_read_seq] TASK READ DATA : Sent Read: ADDR=0x0000033c
# UVM_INFO ../env/apb_agent/apb_monitor.sv(81) @ 1785000: uvm_test_top.env.agent.monitor [apb_monitor] Collected: ADDR= 0x00000050 WRITE= 0 DATA= 0x00000000 WAIT= 0 SLVERR= 0 RDATA= 0x00000000
# UVM_ERROR ../env/apb_scoreboard.sv(69) @ 1785000: uvm_test_top.env.scoreboard [apb_scoreboard] Read FAIL! ADDR=0x00000050 | Exp=0xdeadbeef | Act=0x00000000
# UVM_INFO ../seq/apb_read_seq.sv(37) @ 1785000: uvm_test_top.env.agent.sequencer@@read_seq [apb_read_seq] TASK READ DATA : Sent Read: ADDR=0x00000050
# UVM_INFO ../env/apb_agent/apb_monitor.sv(81) @ 1875000: uvm_test_top.env.agent.monitor [apb_monitor] Collected: ADDR= 0x0000016c WRITE= 0 DATA= 0x00000000 WAIT= 0 SLVERR= 0 RDATA= 0x00000000
# UVM_ERROR ../env/apb_scoreboard.sv(69) @ 1875000: uvm_test_top.env.scoreboard [apb_scoreboard] Read FAIL! ADDR=0x0000016c | Exp=0xdeadbeef | Act=0x00000000
# UVM_INFO ../seq/apb_read_seq.sv(37) @ 1875000: uvm_test_top.env.agent.sequencer@@read_seq [apb_read_seq] TASK READ DATA : Sent Read: ADDR=0x0000016c
# UVM_INFO ../env/apb_agent/apb_monitor.sv(81) @ 1985000: uvm_test_top.env.agent.monitor [apb_monitor] Collected: ADDR= 0x00000064 WRITE= 0 DATA= 0x00000000 WAIT= 0 SLVERR= 0 RDATA= 0x00000000
# UVM_ERROR ../env/apb_scoreboard.sv(69) @ 1985000: uvm_test_top.env.scoreboard [apb_scoreboard] Read FAIL! ADDR=0x00000064 | Exp=0xdeadbeef | Act=0x00000000
# UVM_INFO ../seq/apb_read_seq.sv(37) @ 1985000: uvm_test_top.env.agent.sequencer@@read_seq [apb_read_seq] TASK READ DATA : Sent Read: ADDR=0x00000064
# UVM_INFO ../env/apb_agent/apb_monitor.sv(81) @ 2055000: uvm_test_top.env.agent.monitor [apb_monitor] Collected: ADDR= 0x00000238 WRITE= 0 DATA= 0x00000000 WAIT= 0 SLVERR= 0 RDATA= 0x00000000
# UVM_ERROR ../env/apb_scoreboard.sv(69) @ 2055000: uvm_test_top.env.scoreboard [apb_scoreboard] Read FAIL! ADDR=0x00000238 | Exp=0xdeadbeef | Act=0x00000000
# UVM_INFO ../seq/apb_read_seq.sv(37) @ 2055000: uvm_test_top.env.agent.sequencer@@read_seq [apb_read_seq] TASK READ DATA : Sent Read: ADDR=0x00000238
# UVM_INFO ../env/apb_agent/apb_monitor.sv(81) @ 2135000: uvm_test_top.env.agent.monitor [apb_monitor] Collected: ADDR= 0x0000034c WRITE= 0 DATA= 0x00000000 WAIT= 0 SLVERR= 0 RDATA= 0x00000000
# UVM_ERROR ../env/apb_scoreboard.sv(69) @ 2135000: uvm_test_top.env.scoreboard [apb_scoreboard] Read FAIL! ADDR=0x0000034c | Exp=0xdeadbeef | Act=0x00000000
# UVM_INFO ../seq/apb_read_seq.sv(37) @ 2135000: uvm_test_top.env.agent.sequencer@@read_seq [apb_read_seq] TASK READ DATA : Sent Read: ADDR=0x0000034c
# UVM_INFO ../env/apb_agent/apb_monitor.sv(81) @ 2175000: uvm_test_top.env.agent.monitor [apb_monitor] Collected: ADDR= 0x00000020 WRITE= 0 DATA= 0x00000000 WAIT= 0 SLVERR= 0 RDATA= 0x00000000
# UVM_ERROR ../env/apb_scoreboard.sv(69) @ 2175000: uvm_test_top.env.scoreboard [apb_scoreboard] Read FAIL! ADDR=0x00000020 | Exp=0xdeadbeef | Act=0x00000000
# UVM_INFO ../seq/apb_read_seq.sv(37) @ 2175000: uvm_test_top.env.agent.sequencer@@read_seq [apb_read_seq] TASK READ DATA : Sent Read: ADDR=0x00000020
# UVM_INFO ../env/apb_agent/apb_monitor.sv(81) @ 2275000: uvm_test_top.env.agent.monitor [apb_monitor] Collected: ADDR= 0x000000fc WRITE= 0 DATA= 0x00000000 WAIT= 0 SLVERR= 0 RDATA= 0x00000000
# UVM_ERROR ../env/apb_scoreboard.sv(69) @ 2275000: uvm_test_top.env.scoreboard [apb_scoreboard] Read FAIL! ADDR=0x000000fc | Exp=0xdeadbeef | Act=0x00000000
# UVM_INFO ../seq/apb_read_seq.sv(37) @ 2275000: uvm_test_top.env.agent.sequencer@@read_seq [apb_read_seq] TASK READ DATA : Sent Read: ADDR=0x000000fc
# UVM_INFO ../env/apb_agent/apb_monitor.sv(81) @ 2365000: uvm_test_top.env.agent.monitor [apb_monitor] Collected: ADDR= 0x00000380 WRITE= 0 DATA= 0x00000000 WAIT= 0 SLVERR= 0 RDATA= 0x00000000
# UVM_ERROR ../env/apb_scoreboard.sv(69) @ 2365000: uvm_test_top.env.scoreboard [apb_scoreboard] Read FAIL! ADDR=0x00000380 | Exp=0xdeadbeef | Act=0x00000000
# UVM_INFO ../seq/apb_read_seq.sv(37) @ 2365000: uvm_test_top.env.agent.sequencer@@read_seq [apb_read_seq] TASK READ DATA : Sent Read: ADDR=0x00000380
# UVM_INFO ../env/apb_agent/apb_monitor.sv(81) @ 2405000: uvm_test_top.env.agent.monitor [apb_monitor] Collected: ADDR= 0x0000025c WRITE= 0 DATA= 0x00000000 WAIT= 0 SLVERR= 0 RDATA= 0x00000000
# UVM_ERROR ../env/apb_scoreboard.sv(69) @ 2405000: uvm_test_top.env.scoreboard [apb_scoreboard] Read FAIL! ADDR=0x0000025c | Exp=0xdeadbeef | Act=0x00000000
# UVM_INFO ../seq/apb_read_seq.sv(37) @ 2405000: uvm_test_top.env.agent.sequencer@@read_seq [apb_read_seq] TASK READ DATA : Sent Read: ADDR=0x0000025c
# UVM_INFO ../env/apb_agent/apb_monitor.sv(81) @ 2485000: uvm_test_top.env.agent.monitor [apb_monitor] Collected: ADDR= 0x00000298 WRITE= 0 DATA= 0x00000000 WAIT= 0 SLVERR= 0 RDATA= 0xad0bcb59
# UVM_INFO ../env/apb_scoreboard.sv(65) @ 2485000: uvm_test_top.env.scoreboard [apb_scoreboard] Read PASS: ADDR=0x00000298, RDATA=0xad0bcb59
# UVM_INFO ../seq/apb_read_seq.sv(37) @ 2485000: uvm_test_top.env.agent.sequencer@@read_seq [apb_read_seq] TASK READ DATA : Sent Read: ADDR=0x00000298
# UVM_INFO ../env/apb_agent/apb_monitor.sv(81) @ 2565000: uvm_test_top.env.agent.monitor [apb_monitor] Collected: ADDR= 0x0000021c WRITE= 0 DATA= 0x00000000 WAIT= 0 SLVERR= 0 RDATA= 0x00000000
# UVM_ERROR ../env/apb_scoreboard.sv(69) @ 2565000: uvm_test_top.env.scoreboard [apb_scoreboard] Read FAIL! ADDR=0x0000021c | Exp=0xdeadbeef | Act=0x00000000
# UVM_INFO ../seq/apb_read_seq.sv(37) @ 2565000: uvm_test_top.env.agent.sequencer@@read_seq [apb_read_seq] TASK READ DATA : Sent Read: ADDR=0x0000021c
# UVM_INFO ../env/apb_agent/apb_monitor.sv(81) @ 2635000: uvm_test_top.env.agent.monitor [apb_monitor] Collected: ADDR= 0x00000024 WRITE= 0 DATA= 0x00000000 WAIT= 0 SLVERR= 0 RDATA= 0x00000000
# UVM_ERROR ../env/apb_scoreboard.sv(69) @ 2635000: uvm_test_top.env.scoreboard [apb_scoreboard] Read FAIL! ADDR=0x00000024 | Exp=0xdeadbeef | Act=0x00000000
# UVM_INFO ../seq/apb_read_seq.sv(37) @ 2635000: uvm_test_top.env.agent.sequencer@@read_seq [apb_read_seq] TASK READ DATA : Sent Read: ADDR=0x00000024
# UVM_INFO ../env/apb_agent/apb_monitor.sv(81) @ 2675000: uvm_test_top.env.agent.monitor [apb_monitor] Collected: ADDR= 0x00000338 WRITE= 0 DATA= 0x00000000 WAIT= 0 SLVERR= 0 RDATA= 0x00000000
# UVM_ERROR ../env/apb_scoreboard.sv(69) @ 2675000: uvm_test_top.env.scoreboard [apb_scoreboard] Read FAIL! ADDR=0x00000338 | Exp=0xdeadbeef | Act=0x00000000
# UVM_INFO ../seq/apb_read_seq.sv(37) @ 2675000: uvm_test_top.env.agent.sequencer@@read_seq [apb_read_seq] TASK READ DATA : Sent Read: ADDR=0x00000338
# UVM_INFO ../env/apb_agent/apb_monitor.sv(81) @ 2715000: uvm_test_top.env.agent.monitor [apb_monitor] Collected: ADDR= 0x00000064 WRITE= 1 DATA= 0xb70eaacb WAIT= 0 SLVERR= 0 RDATA= 0x00000000
# UVM_INFO ../seq/apb_write_seq.sv(33) @ 2715000: uvm_test_top.env.agent.sequencer@@write_seq [apb_write_seq] TASK WRITE: Sent Write: ADDR = 0x00000064, DATA = 0xb70eaacb
# UVM_INFO ../env/apb_agent/apb_monitor.sv(81) @ 2805000: uvm_test_top.env.agent.monitor [apb_monitor] Collected: ADDR= 0x0000037c WRITE= 1 DATA= 0xd89f246b WAIT= 0 SLVERR= 0 RDATA= 0x00000000
# UVM_INFO ../seq/apb_write_seq.sv(33) @ 2805000: uvm_test_top.env.agent.sequencer@@write_seq [apb_write_seq] TASK WRITE: Sent Write: ADDR = 0x0000037c, DATA = 0xd89f246b
# UVM_INFO ../env/apb_agent/apb_monitor.sv(81) @ 2905000: uvm_test_top.env.agent.monitor [apb_monitor] Collected: ADDR= 0x00000204 WRITE= 1 DATA= 0xb4981161 WAIT= 0 SLVERR= 0 RDATA= 0x00000000
# UVM_INFO ../seq/apb_write_seq.sv(33) @ 2905000: uvm_test_top.env.agent.sequencer@@write_seq [apb_write_seq] TASK WRITE: Sent Write: ADDR = 0x00000204, DATA = 0xb4981161
# UVM_INFO ../env/apb_agent/apb_monitor.sv(81) @ 2945000: uvm_test_top.env.agent.monitor [apb_monitor] Collected: ADDR= 0x00000098 WRITE= 1 DATA= 0x479442a3 WAIT= 0 SLVERR= 0 RDATA= 0x00000000
# UVM_INFO ../seq/apb_write_seq.sv(33) @ 2945000: uvm_test_top.env.agent.sequencer@@write_seq [apb_write_seq] TASK WRITE: Sent Write: ADDR = 0x00000098, DATA = 0x479442a3
# UVM_INFO ../env/apb_agent/apb_monitor.sv(81) @ 3005000: uvm_test_top.env.agent.monitor [apb_monitor] Collected: ADDR= 0x00000074 WRITE= 1 DATA= 0xab1cc343 WAIT= 0 SLVERR= 0 RDATA= 0x00000000
# UVM_INFO ../seq/apb_write_seq.sv(33) @ 3005000: uvm_test_top.env.agent.sequencer@@write_seq [apb_write_seq] TASK WRITE: Sent Write: ADDR = 0x00000074, DATA = 0xab1cc343
# UVM_INFO ../env/apb_agent/apb_monitor.sv(81) @ 3075000: uvm_test_top.env.agent.monitor [apb_monitor] Collected: ADDR= 0x00000104 WRITE= 1 DATA= 0x8ecf363e WAIT= 0 SLVERR= 0 RDATA= 0x00000000
# UVM_INFO ../seq/apb_write_seq.sv(33) @ 3075000: uvm_test_top.env.agent.sequencer@@write_seq [apb_write_seq] TASK WRITE: Sent Write: ADDR = 0x00000104, DATA = 0x8ecf363e
# UVM_INFO ../env/apb_agent/apb_monitor.sv(81) @ 3145000: uvm_test_top.env.agent.monitor [apb_monitor] Collected: ADDR= 0x000003bc WRITE= 1 DATA= 0x9ae5e9bc WAIT= 0 SLVERR= 0 RDATA= 0x00000000
# UVM_INFO ../seq/apb_write_seq.sv(33) @ 3145000: uvm_test_top.env.agent.sequencer@@write_seq [apb_write_seq] TASK WRITE: Sent Write: ADDR = 0x000003bc, DATA = 0x9ae5e9bc
# UVM_INFO ../env/apb_agent/apb_monitor.sv(81) @ 3245000: uvm_test_top.env.agent.monitor [apb_monitor] Collected: ADDR= 0x0000034c WRITE= 1 DATA= 0x2205397c WAIT= 0 SLVERR= 0 RDATA= 0x00000000
# UVM_INFO ../seq/apb_write_seq.sv(33) @ 3245000: uvm_test_top.env.agent.sequencer@@write_seq [apb_write_seq] TASK WRITE: Sent Write: ADDR = 0x0000034c, DATA = 0x2205397c
# UVM_INFO ../env/apb_agent/apb_monitor.sv(81) @ 3315000: uvm_test_top.env.agent.monitor [apb_monitor] Collected: ADDR= 0x00000024 WRITE= 1 DATA= 0x71e57e87 WAIT= 0 SLVERR= 0 RDATA= 0x00000000
# UVM_INFO ../seq/apb_write_seq.sv(33) @ 3315000: uvm_test_top.env.agent.sequencer@@write_seq [apb_write_seq] TASK WRITE: Sent Write: ADDR = 0x00000024, DATA = 0x71e57e87
# UVM_INFO ../env/apb_agent/apb_monitor.sv(81) @ 3355000: uvm_test_top.env.agent.monitor [apb_monitor] Collected: ADDR= 0x0000014c WRITE= 1 DATA= 0x1d4a83ee WAIT= 0 SLVERR= 0 RDATA= 0x00000000
# UVM_INFO ../seq/apb_write_seq.sv(33) @ 3355000: uvm_test_top.env.agent.sequencer@@write_seq [apb_write_seq] TASK WRITE: Sent Write: ADDR = 0x0000014c, DATA = 0x1d4a83ee
# UVM_INFO ../env/apb_agent/apb_monitor.sv(81) @ 3405000: uvm_test_top.env.agent.monitor [apb_monitor] Collected: ADDR= 0x00000310 WRITE= 1 DATA= 0x183981a8 WAIT= 0 SLVERR= 0 RDATA= 0x00000000
# UVM_INFO ../seq/apb_write_seq.sv(33) @ 3405000: uvm_test_top.env.agent.sequencer@@write_seq [apb_write_seq] TASK WRITE: Sent Write: ADDR = 0x00000310, DATA = 0x183981a8
# UVM_INFO ../env/apb_agent/apb_monitor.sv(81) @ 3495000: uvm_test_top.env.agent.monitor [apb_monitor] Collected: ADDR= 0x000002c8 WRITE= 1 DATA= 0x1ffb0c7e WAIT= 0 SLVERR= 0 RDATA= 0x00000000
# UVM_INFO ../seq/apb_write_seq.sv(33) @ 3495000: uvm_test_top.env.agent.sequencer@@write_seq [apb_write_seq] TASK WRITE: Sent Write: ADDR = 0x000002c8, DATA = 0x1ffb0c7e
# UVM_INFO ../env/apb_agent/apb_monitor.sv(81) @ 3585000: uvm_test_top.env.agent.monitor [apb_monitor] Collected: ADDR= 0x000001b4 WRITE= 1 DATA= 0x44dd546f WAIT= 0 SLVERR= 0 RDATA= 0x00000000
# UVM_INFO ../seq/apb_write_seq.sv(33) @ 3585000: uvm_test_top.env.agent.sequencer@@write_seq [apb_write_seq] TASK WRITE: Sent Write: ADDR = 0x000001b4, DATA = 0x44dd546f
# UVM_INFO ../env/apb_agent/apb_monitor.sv(81) @ 3625000: uvm_test_top.env.agent.monitor [apb_monitor] Collected: ADDR= 0x00000290 WRITE= 1 DATA= 0x2b610c68 WAIT= 0 SLVERR= 0 RDATA= 0x00000000
# UVM_INFO ../seq/apb_write_seq.sv(33) @ 3625000: uvm_test_top.env.agent.sequencer@@write_seq [apb_write_seq] TASK WRITE: Sent Write: ADDR = 0x00000290, DATA = 0x2b610c68
# UVM_INFO ../env/apb_agent/apb_monitor.sv(81) @ 3675000: uvm_test_top.env.agent.monitor [apb_monitor] Collected: ADDR= 0x000003e8 WRITE= 1 DATA= 0x12df7f9d WAIT= 0 SLVERR= 0 RDATA= 0x00000000
# UVM_INFO ../seq/apb_write_seq.sv(33) @ 3675000: uvm_test_top.env.agent.sequencer@@write_seq [apb_write_seq] TASK WRITE: Sent Write: ADDR = 0x000003e8, DATA = 0x12df7f9d
# UVM_INFO ../env/apb_agent/apb_monitor.sv(81) @ 3715000: uvm_test_top.env.agent.monitor [apb_monitor] Collected: ADDR= 0x000001e4 WRITE= 1 DATA= 0x2ad93e89 WAIT= 0 SLVERR= 0 RDATA= 0x00000000
# UVM_INFO ../seq/apb_write_seq.sv(33) @ 3715000: uvm_test_top.env.agent.sequencer@@write_seq [apb_write_seq] TASK WRITE: Sent Write: ADDR = 0x000001e4, DATA = 0x2ad93e89
# UVM_INFO ../env/apb_agent/apb_monitor.sv(81) @ 3805000: uvm_test_top.env.agent.monitor [apb_monitor] Collected: ADDR= 0x000002a0 WRITE= 1 DATA= 0x98019fa7 WAIT= 0 SLVERR= 0 RDATA= 0x00000000
# UVM_INFO ../seq/apb_write_seq.sv(33) @ 3805000: uvm_test_top.env.agent.sequencer@@write_seq [apb_write_seq] TASK WRITE: Sent Write: ADDR = 0x000002a0, DATA = 0x98019fa7
# UVM_INFO ../env/apb_agent/apb_monitor.sv(81) @ 3915000: uvm_test_top.env.agent.monitor [apb_monitor] Collected: ADDR= 0x000001b4 WRITE= 1 DATA= 0xfa15badc WAIT= 0 SLVERR= 0 RDATA= 0x00000000
# UVM_INFO ../seq/apb_write_seq.sv(33) @ 3915000: uvm_test_top.env.agent.sequencer@@write_seq [apb_write_seq] TASK WRITE: Sent Write: ADDR = 0x000001b4, DATA = 0xfa15badc
# UVM_INFO ../env/apb_agent/apb_monitor.sv(81) @ 3955000: uvm_test_top.env.agent.monitor [apb_monitor] Collected: ADDR= 0x00000030 WRITE= 1 DATA= 0x07212984 WAIT= 0 SLVERR= 0 RDATA= 0x00000000
# UVM_INFO ../seq/apb_write_seq.sv(33) @ 3955000: uvm_test_top.env.agent.sequencer@@write_seq [apb_write_seq] TASK WRITE: Sent Write: ADDR = 0x00000030, DATA = 0x07212984
# UVM_INFO ../env/apb_agent/apb_monitor.sv(81) @ 4045000: uvm_test_top.env.agent.monitor [apb_monitor] Collected: ADDR= 0x00000040 WRITE= 1 DATA= 0x3289d897 WAIT= 0 SLVERR= 0 RDATA= 0x00000000
# UVM_INFO ../seq/apb_write_seq.sv(33) @ 4045000: uvm_test_top.env.agent.sequencer@@write_seq [apb_write_seq] TASK WRITE: Sent Write: ADDR = 0x00000040, DATA = 0x3289d897
# UVM_INFO ../env/apb_agent/apb_monitor.sv(81) @ 4125000: uvm_test_top.env.agent.monitor [apb_monitor] Collected: ADDR= 0x00000094 WRITE= 0 DATA= 0x00000000 WAIT= 0 SLVERR= 0 RDATA= 0x00000000
# UVM_ERROR ../env/apb_scoreboard.sv(69) @ 4125000: uvm_test_top.env.scoreboard [apb_scoreboard] Read FAIL! ADDR=0x00000094 | Exp=0xdeadbeef | Act=0x00000000
# UVM_INFO ../seq/apb_read_seq.sv(37) @ 4125000: uvm_test_top.env.agent.sequencer@@read_seq [apb_read_seq] TASK READ DATA : Sent Read: ADDR=0x00000094
# UVM_INFO ../env/apb_agent/apb_monitor.sv(81) @ 4235000: uvm_test_top.env.agent.monitor [apb_monitor] Collected: ADDR= 0x00000040 WRITE= 0 DATA= 0x00000000 WAIT= 0 SLVERR= 0 RDATA= 0x3289d897
# UVM_INFO ../env/apb_scoreboard.sv(65) @ 4235000: uvm_test_top.env.scoreboard [apb_scoreboard] Read PASS: ADDR=0x00000040, RDATA=0x3289d897
# UVM_INFO ../seq/apb_read_seq.sv(37) @ 4235000: uvm_test_top.env.agent.sequencer@@read_seq [apb_read_seq] TASK READ DATA : Sent Read: ADDR=0x00000040
# UVM_INFO ../env/apb_agent/apb_monitor.sv(81) @ 4325000: uvm_test_top.env.agent.monitor [apb_monitor] Collected: ADDR= 0x0000023c WRITE= 0 DATA= 0x00000000 WAIT= 0 SLVERR= 0 RDATA= 0x00000000
# UVM_ERROR ../env/apb_scoreboard.sv(69) @ 4325000: uvm_test_top.env.scoreboard [apb_scoreboard] Read FAIL! ADDR=0x0000023c | Exp=0xdeadbeef | Act=0x00000000
# UVM_INFO ../seq/apb_read_seq.sv(37) @ 4325000: uvm_test_top.env.agent.sequencer@@read_seq [apb_read_seq] TASK READ DATA : Sent Read: ADDR=0x0000023c
# UVM_INFO ../env/apb_agent/apb_monitor.sv(81) @ 4395000: uvm_test_top.env.agent.monitor [apb_monitor] Collected: ADDR= 0x00000324 WRITE= 0 DATA= 0x00000000 WAIT= 0 SLVERR= 0 RDATA= 0x00000000
# UVM_ERROR ../env/apb_scoreboard.sv(69) @ 4395000: uvm_test_top.env.scoreboard [apb_scoreboard] Read FAIL! ADDR=0x00000324 | Exp=0xdeadbeef | Act=0x00000000
# UVM_INFO ../seq/apb_read_seq.sv(37) @ 4395000: uvm_test_top.env.agent.sequencer@@read_seq [apb_read_seq] TASK READ DATA : Sent Read: ADDR=0x00000324
# UVM_INFO ../env/apb_agent/apb_monitor.sv(81) @ 4505000: uvm_test_top.env.agent.monitor [apb_monitor] Collected: ADDR= 0x00000174 WRITE= 0 DATA= 0x00000000 WAIT= 0 SLVERR= 0 RDATA= 0x00000000
# UVM_ERROR ../env/apb_scoreboard.sv(69) @ 4505000: uvm_test_top.env.scoreboard [apb_scoreboard] Read FAIL! ADDR=0x00000174 | Exp=0xdeadbeef | Act=0x00000000
# UVM_INFO ../seq/apb_read_seq.sv(37) @ 4505000: uvm_test_top.env.agent.sequencer@@read_seq [apb_read_seq] TASK READ DATA : Sent Read: ADDR=0x00000174
# UVM_INFO ../env/apb_agent/apb_monitor.sv(81) @ 4565000: uvm_test_top.env.agent.monitor [apb_monitor] Collected: ADDR= 0x000002e4 WRITE= 0 DATA= 0x00000000 WAIT= 0 SLVERR= 0 RDATA= 0x00000000
# UVM_ERROR ../env/apb_scoreboard.sv(69) @ 4565000: uvm_test_top.env.scoreboard [apb_scoreboard] Read FAIL! ADDR=0x000002e4 | Exp=0xdeadbeef | Act=0x00000000
# UVM_INFO ../seq/apb_read_seq.sv(37) @ 4565000: uvm_test_top.env.agent.sequencer@@read_seq [apb_read_seq] TASK READ DATA : Sent Read: ADDR=0x000002e4
# UVM_INFO ../env/apb_agent/apb_monitor.sv(81) @ 4675000: uvm_test_top.env.agent.monitor [apb_monitor] Collected: ADDR= 0x000002b4 WRITE= 0 DATA= 0x00000000 WAIT= 0 SLVERR= 0 RDATA= 0x00000000
# UVM_ERROR ../env/apb_scoreboard.sv(69) @ 4675000: uvm_test_top.env.scoreboard [apb_scoreboard] Read FAIL! ADDR=0x000002b4 | Exp=0xdeadbeef | Act=0x00000000
# UVM_INFO ../seq/apb_read_seq.sv(37) @ 4675000: uvm_test_top.env.agent.sequencer@@read_seq [apb_read_seq] TASK READ DATA : Sent Read: ADDR=0x000002b4
# UVM_INFO ../env/apb_agent/apb_monitor.sv(81) @ 4735000: uvm_test_top.env.agent.monitor [apb_monitor] Collected: ADDR= 0x00000338 WRITE= 0 DATA= 0x00000000 WAIT= 0 SLVERR= 0 RDATA= 0x00000000
# UVM_ERROR ../env/apb_scoreboard.sv(69) @ 4735000: uvm_test_top.env.scoreboard [apb_scoreboard] Read FAIL! ADDR=0x00000338 | Exp=0xdeadbeef | Act=0x00000000
# UVM_INFO ../seq/apb_read_seq.sv(37) @ 4735000: uvm_test_top.env.agent.sequencer@@read_seq [apb_read_seq] TASK READ DATA : Sent Read: ADDR=0x00000338
# UVM_INFO ../env/apb_agent/apb_monitor.sv(81) @ 4775000: uvm_test_top.env.agent.monitor [apb_monitor] Collected: ADDR= 0x0000015c WRITE= 0 DATA= 0x00000000 WAIT= 0 SLVERR= 0 RDATA= 0x00000000
# UVM_ERROR ../env/apb_scoreboard.sv(69) @ 4775000: uvm_test_top.env.scoreboard [apb_scoreboard] Read FAIL! ADDR=0x0000015c | Exp=0xdeadbeef | Act=0x00000000
# UVM_INFO ../seq/apb_read_seq.sv(37) @ 4775000: uvm_test_top.env.agent.sequencer@@read_seq [apb_read_seq] TASK READ DATA : Sent Read: ADDR=0x0000015c
# UVM_INFO ../env/apb_agent/apb_monitor.sv(81) @ 4885000: uvm_test_top.env.agent.monitor [apb_monitor] Collected: ADDR= 0x000002f0 WRITE= 0 DATA= 0x00000000 WAIT= 0 SLVERR= 0 RDATA= 0x00000000
# UVM_ERROR ../env/apb_scoreboard.sv(69) @ 4885000: uvm_test_top.env.scoreboard [apb_scoreboard] Read FAIL! ADDR=0x000002f0 | Exp=0xdeadbeef | Act=0x00000000
# UVM_INFO ../seq/apb_read_seq.sv(37) @ 4885000: uvm_test_top.env.agent.sequencer@@read_seq [apb_read_seq] TASK READ DATA : Sent Read: ADDR=0x000002f0
# UVM_INFO ../env/apb_agent/apb_monitor.sv(81) @ 4935000: uvm_test_top.env.agent.monitor [apb_monitor] Collected: ADDR= 0x00000238 WRITE= 0 DATA= 0x00000000 WAIT= 0 SLVERR= 0 RDATA= 0x00000000
# UVM_ERROR ../env/apb_scoreboard.sv(69) @ 4935000: uvm_test_top.env.scoreboard [apb_scoreboard] Read FAIL! ADDR=0x00000238 | Exp=0xdeadbeef | Act=0x00000000
# UVM_INFO ../seq/apb_read_seq.sv(37) @ 4935000: uvm_test_top.env.agent.sequencer@@read_seq [apb_read_seq] TASK READ DATA : Sent Read: ADDR=0x00000238
# UVM_INFO ../env/apb_agent/apb_monitor.sv(81) @ 4995000: uvm_test_top.env.agent.monitor [apb_monitor] Collected: ADDR= 0x00000020 WRITE= 0 DATA= 0x00000000 WAIT= 0 SLVERR= 0 RDATA= 0x00000000
# UVM_ERROR ../env/apb_scoreboard.sv(69) @ 4995000: uvm_test_top.env.scoreboard [apb_scoreboard] Read FAIL! ADDR=0x00000020 | Exp=0xdeadbeef | Act=0x00000000
# UVM_INFO ../seq/apb_read_seq.sv(37) @ 4995000: uvm_test_top.env.agent.sequencer@@read_seq [apb_read_seq] TASK READ DATA : Sent Read: ADDR=0x00000020
# UVM_INFO ../env/apb_agent/apb_monitor.sv(81) @ 5045000: uvm_test_top.env.agent.monitor [apb_monitor] Collected: ADDR= 0x00000354 WRITE= 0 DATA= 0x00000000 WAIT= 0 SLVERR= 0 RDATA= 0x5cc11002
# UVM_INFO ../env/apb_scoreboard.sv(65) @ 5045000: uvm_test_top.env.scoreboard [apb_scoreboard] Read PASS: ADDR=0x00000354, RDATA=0x5cc11002
# UVM_INFO ../seq/apb_read_seq.sv(37) @ 5045000: uvm_test_top.env.agent.sequencer@@read_seq [apb_read_seq] TASK READ DATA : Sent Read: ADDR=0x00000354
# UVM_INFO ../env/apb_agent/apb_monitor.sv(81) @ 5135000: uvm_test_top.env.agent.monitor [apb_monitor] Collected: ADDR= 0x000003c0 WRITE= 0 DATA= 0x00000000 WAIT= 0 SLVERR= 0 RDATA= 0xa42408e4
# UVM_INFO ../env/apb_scoreboard.sv(65) @ 5135000: uvm_test_top.env.scoreboard [apb_scoreboard] Read PASS: ADDR=0x000003c0, RDATA=0xa42408e4
# UVM_INFO ../seq/apb_read_seq.sv(37) @ 5135000: uvm_test_top.env.agent.sequencer@@read_seq [apb_read_seq] TASK READ DATA : Sent Read: ADDR=0x000003c0
# UVM_INFO ../env/apb_agent/apb_monitor.sv(81) @ 5215000: uvm_test_top.env.agent.monitor [apb_monitor] Collected: ADDR= 0x000002dc WRITE= 0 DATA= 0x00000000 WAIT= 0 SLVERR= 0 RDATA= 0x00000000
# UVM_ERROR ../env/apb_scoreboard.sv(69) @ 5215000: uvm_test_top.env.scoreboard [apb_scoreboard] Read FAIL! ADDR=0x000002dc | Exp=0xdeadbeef | Act=0x00000000
# UVM_INFO ../seq/apb_read_seq.sv(37) @ 5215000: uvm_test_top.env.agent.sequencer@@read_seq [apb_read_seq] TASK READ DATA : Sent Read: ADDR=0x000002dc
# UVM_INFO ../env/apb_agent/apb_monitor.sv(81) @ 5255000: uvm_test_top.env.agent.monitor [apb_monitor] Collected: ADDR= 0x00000374 WRITE= 0 DATA= 0x00000000 WAIT= 0 SLVERR= 0 RDATA= 0x00000000
# UVM_ERROR ../env/apb_scoreboard.sv(69) @ 5255000: uvm_test_top.env.scoreboard [apb_scoreboard] Read FAIL! ADDR=0x00000374 | Exp=0xdeadbeef | Act=0x00000000
# UVM_INFO ../seq/apb_read_seq.sv(37) @ 5255000: uvm_test_top.env.agent.sequencer@@read_seq [apb_read_seq] TASK READ DATA : Sent Read: ADDR=0x00000374
# UVM_INFO ../env/apb_agent/apb_monitor.sv(81) @ 5315000: uvm_test_top.env.agent.monitor [apb_monitor] Collected: ADDR= 0x00000214 WRITE= 0 DATA= 0x00000000 WAIT= 0 SLVERR= 0 RDATA= 0x00000000
# UVM_ERROR ../env/apb_scoreboard.sv(69) @ 5315000: uvm_test_top.env.scoreboard [apb_scoreboard] Read FAIL! ADDR=0x00000214 | Exp=0xdeadbeef | Act=0x00000000
# UVM_INFO ../seq/apb_read_seq.sv(37) @ 5315000: uvm_test_top.env.agent.sequencer@@read_seq [apb_read_seq] TASK READ DATA : Sent Read: ADDR=0x00000214
# UVM_INFO ../env/apb_agent/apb_monitor.sv(81) @ 5355000: uvm_test_top.env.agent.monitor [apb_monitor] Collected: ADDR= 0x00000230 WRITE= 0 DATA= 0x00000000 WAIT= 0 SLVERR= 0 RDATA= 0x00000000
# UVM_ERROR ../env/apb_scoreboard.sv(69) @ 5355000: uvm_test_top.env.scoreboard [apb_scoreboard] Read FAIL! ADDR=0x00000230 | Exp=0xdeadbeef | Act=0x00000000
# UVM_INFO ../seq/apb_read_seq.sv(37) @ 5355000: uvm_test_top.env.agent.sequencer@@read_seq [apb_read_seq] TASK READ DATA : Sent Read: ADDR=0x00000230
# UVM_INFO ../env/apb_agent/apb_monitor.sv(81) @ 5435000: uvm_test_top.env.agent.monitor [apb_monitor] Collected: ADDR= 0x00000014 WRITE= 0 DATA= 0x00000000 WAIT= 0 SLVERR= 0 RDATA= 0x00000000
# UVM_ERROR ../env/apb_scoreboard.sv(69) @ 5435000: uvm_test_top.env.scoreboard [apb_scoreboard] Read FAIL! ADDR=0x00000014 | Exp=0xdeadbeef | Act=0x00000000
# UVM_INFO ../seq/apb_read_seq.sv(37) @ 5435000: uvm_test_top.env.agent.sequencer@@read_seq [apb_read_seq] TASK READ DATA : Sent Read: ADDR=0x00000014
# UVM_INFO ../env/apb_agent/apb_monitor.sv(81) @ 5475000: uvm_test_top.env.agent.monitor [apb_monitor] Collected: ADDR= 0x00000124 WRITE= 0 DATA= 0x00000000 WAIT= 0 SLVERR= 0 RDATA= 0x00000000
# UVM_ERROR ../env/apb_scoreboard.sv(69) @ 5475000: uvm_test_top.env.scoreboard [apb_scoreboard] Read FAIL! ADDR=0x00000124 | Exp=0xdeadbeef | Act=0x00000000
# UVM_INFO ../seq/apb_read_seq.sv(37) @ 5475000: uvm_test_top.env.agent.sequencer@@read_seq [apb_read_seq] TASK READ DATA : Sent Read: ADDR=0x00000124
# UVM_INFO ../test/apb_base_test.sv(52) @ 5475000: uvm_test_top [apb_base_test] === All sequences completed ===
# UVM_INFO verilog_src/uvm-1.1d/src/base/uvm_objection.svh(1268) @ 5475000: reporter [TEST_DONE] 'run' phase is ready to proceed to the 'extract' phase
# UVM_INFO ../env/apb_scoreboard.sv(78) @ 5475000: uvm_test_top.env.scoreboard [apb_scoreboard] 
# 
# UVM_INFO ../env/apb_scoreboard.sv(79) @ 5475000: uvm_test_top.env.scoreboard [apb_scoreboard] ================== SCOREBOARD REPORT ==================
# UVM_INFO ../env/apb_scoreboard.sv(80) @ 5475000: uvm_test_top.env.scoreboard [apb_scoreboard] Total Transactions   : 80
# UVM_INFO ../env/apb_scoreboard.sv(81) @ 5475000: uvm_test_top.env.scoreboard [apb_scoreboard] Write Transactions   : 40
# UVM_INFO ../env/apb_scoreboard.sv(82) @ 5475000: uvm_test_top.env.scoreboard [apb_scoreboard] Read Transactions    : 40
# UVM_INFO ../env/apb_scoreboard.sv(83) @ 5475000: uvm_test_top.env.scoreboard [apb_scoreboard] Error Transactions   : 0
# UVM_INFO ../env/apb_scoreboard.sv(84) @ 5475000: uvm_test_top.env.scoreboard [apb_scoreboard] Passed Transactions  : 44
# UVM_INFO ../env/apb_scoreboard.sv(85) @ 5475000: uvm_test_top.env.scoreboard [apb_scoreboard] Failed Transactions  : 36
# UVM_ERROR ../env/apb_scoreboard.sv(90) @ 5475000: uvm_test_top.env.scoreboard [apb_scoreboard]                   *** TEST FAILED ***
# UVM_INFO ../env/apb_scoreboard.sv(92) @ 5475000: uvm_test_top.env.scoreboard [apb_scoreboard] ===================================================
# 
# UVM_INFO ../env/apb_env.sv(54) @ 5475000: uvm_test_top.env [apb_env] Enviroment report phase completed
# UVM_INFO ../test/apb_base_test.sv(59) @ 5475000: uvm_test_top [apb_base_test] APB Base Test completed
# 
# --- UVM Report Summary ---
# 
# ** Report counts by severity
# UVM_INFO :  188
# UVM_WARNING :    0
# UVM_ERROR :   37
# UVM_FATAL :    0
# ** Report counts by id
# [AGT]     1
# [Questa UVM]     2
# [RNTST]     1
# [TB_TOP]     1
# [TEST_DONE]     1
# [apb_agent]     1
# [apb_base_test]     4
# [apb_env]     3
# [apb_monitor]    81
# [apb_read_seq]    40
# [apb_scoreboard]    50
# [apb_write_seq]    40
# ** Note: $finish    : /cadtools/mentor/Questa_10.6b/questasim/linux_x86_64/../verilog_src/uvm-1.1d/src/base/uvm_root.svh(430)
#    Time: 5475 ns  Iteration: 63  Instance: /tb_top
# End time: 09:09:44 on May 15,2026, Elapsed time: 0:00:31
# Errors: 0, Warnings: 0
