# vsim -c tb_top -do "run -all; quit -f" 
# Start time: 12:52:37 on May 15,2026
# ** Note: (vsim-3813) Design is being optimized due to module recompilation...
# //  Questa Sim-64
# //  Version 10.6b linux_x86_64 May 25 2017
# //
# //  Copyright 1991-2017 Mentor Graphics Corporation
# //  All Rights Reserved.
# //
# //  QuestaSim and its associated documentation contain trade
# //  secrets and commercial or financial information that are the property of
# //  Mentor Graphics Corporation and are privileged, confidential,
# //  and exempt from disclosure under the Freedom of Information Act,
# //  5 U.S.C. Section 552. Furthermore, this information
# //  is prohibited from disclosure under the Trade Secrets Act,
# //  18 U.S.C. Section 1905.
# //
# Loading sv_std.std
# Loading work.apb_if(fast)
# Loading mtiUvm.uvm_pkg
# Loading work.apb_pkg(fast)
# Loading work.apb_if_sv_unit(fast)
# Loading work.tb_top(fast)
# Loading work.apb_if(fast)
# Loading work.apb_sram(fast)
# Loading mtiUvm.questa_uvm_pkg(fast)
# Loading /cadtools/mentor/Questa_10.6b/questasim/uvm-1.1d/linux_x86_64/uvm_dpi.so
# run -all
# ----------------------------------------------------------------
# UVM-1.1d
# (C) 2007-2013 Mentor Graphics Corporation
# (C) 2007-2013 Cadence Design Systems, Inc.
# (C) 2006-2013 Synopsys, Inc.
# (C) 2011-2013 Cypress Semiconductor Corp.
# ----------------------------------------------------------------
# 
#   ***********       IMPORTANT RELEASE NOTES         ************
# 
#   You are using a version of the UVM library that has been compiled
#   with `UVM_NO_DEPRECATED undefined.
#   See http://www.eda.org/svdb/view.php?id=3313 for more details.
# 
#   You are using a version of the UVM library that has been compiled
#   with `UVM_OBJECT_MUST_HAVE_CONSTRUCTOR undefined.
#   See http://www.eda.org/svdb/view.php?id=3770 for more details.
# 
#       (Specify +UVM_NO_RELNOTES to turn off this notice)
# 
# UVM_INFO verilog_src/questa_uvm_pkg-1.2/src/questa_uvm_pkg.sv(215) @ 0: reporter [Questa UVM] QUESTA_UVM-1.2.3
# UVM_INFO verilog_src/questa_uvm_pkg-1.2/src/questa_uvm_pkg.sv(217) @ 0: reporter [Questa UVM]  questa_uvm::init(+struct)
# UVM_INFO ../tb/tb_top.sv(48) @ 0: reporter [TB_TOP] Starting APB UVM Testbench
# UVM_INFO @ 0: reporter [RNTST] Running test apb_base_test...
# UVM_INFO ../test/apb_base_test.sv(34) @ 0: uvm_test_top [apb_base_test] Build phase completed
# UVM_INFO ../env/apb_env.sv(36) @ 0: uvm_test_top.env [apb_env] Build phase completed
# UVM_INFO ../env/apb_agent/apb_agent.sv(43) @ 0: uvm_test_top.env.agent [AGT] No is_active config, defaulting to UVM_ACTIVE
# UVM_INFO ../env/apb_env.sv(47) @ 0: uvm_test_top.env [apb_env] Connect phase completed - Monitor connected to Scoreboard
# UVM_INFO ../env/apb_agent/apb_agent.sv(72) @ 0: uvm_test_top.env.agent [apb_agent] Agent Mode:  ACTIVE
# UVM_INFO ../test/apb_base_test.sv(41) @ 0: uvm_test_top [apb_base_test] ==============START APB TEST =================
# UVM_INFO ../env/apb_agent/apb_monitor.sv(45) @ 35000: uvm_test_top.env.agent.monitor [apb_monitor] Monitor started after reset
# UVM_INFO ../env/apb_agent/apb_monitor.sv(81) @ 135000: uvm_test_top.env.agent.monitor [apb_monitor] Collected: T#0 | UNKNOWN_SEQ | ADDR=0x00000140 WRITE=1 DATA=0xfbe926df RDATA=0x00000000 SLVERR=0
# UVM_INFO ../seq/apb_wr_rd_seq.sv(41) @ 135000: uvm_test_top.env.agent.sequencer@@wr_rd_seq [apb_wr_rd_seq] WRITE: ADDR=0x00000140 DATA=0xfbe926df
# UVM_INFO ../env/apb_agent/apb_monitor.sv(81) @ 175000: uvm_test_top.env.agent.monitor [apb_monitor] Collected: T#0 | UNKNOWN_SEQ | ADDR=0x00000140 WRITE=0 DATA=0xfbe926df RDATA=0xfbe926df SLVERR=0
# UVM_INFO ../env/apb_scoreboard.sv(73) @ 175000: uvm_test_top.env.scoreboard [apb_scoreboard] T#2 [READ PASS] ADDR=0x00000140 RDATA=0xfbe926df
# UVM_INFO ../seq/apb_wr_rd_seq.sv(56) @ 175000: uvm_test_top.env.agent.sequencer@@wr_rd_seq [apb_wr_rd_seq] READ : ADDR=0x00000140 RDATA=0xfbe926df
# UVM_INFO ../env/apb_agent/apb_monitor.sv(81) @ 215000: uvm_test_top.env.agent.monitor [apb_monitor] Collected: T#0 | UNKNOWN_SEQ | ADDR=0x000002c8 WRITE=1 DATA=0x1ece0459 RDATA=0xfbe926df SLVERR=0
# UVM_INFO ../seq/apb_wr_rd_seq.sv(41) @ 215000: uvm_test_top.env.agent.sequencer@@wr_rd_seq [apb_wr_rd_seq] WRITE: ADDR=0x000002c8 DATA=0x1ece0459
# UVM_INFO ../env/apb_agent/apb_monitor.sv(81) @ 325000: uvm_test_top.env.agent.monitor [apb_monitor] Collected: T#0 | UNKNOWN_SEQ | ADDR=0x000002c8 WRITE=0 DATA=0x1ece0459 RDATA=0x1ece0459 SLVERR=0
# UVM_INFO ../env/apb_scoreboard.sv(73) @ 325000: uvm_test_top.env.scoreboard [apb_scoreboard] T#4 [READ PASS] ADDR=0x000002c8 RDATA=0x1ece0459
# UVM_INFO ../seq/apb_wr_rd_seq.sv(56) @ 325000: uvm_test_top.env.agent.sequencer@@wr_rd_seq [apb_wr_rd_seq] READ : ADDR=0x000002c8 RDATA=0x1ece0459
# UVM_INFO ../env/apb_agent/apb_monitor.sv(81) @ 425000: uvm_test_top.env.agent.monitor [apb_monitor] Collected: T#0 | UNKNOWN_SEQ | ADDR=0x00000064 WRITE=1 DATA=0x1a9e77fa RDATA=0x1ece0459 SLVERR=0
# UVM_INFO ../seq/apb_wr_rd_seq.sv(41) @ 425000: uvm_test_top.env.agent.sequencer@@wr_rd_seq [apb_wr_rd_seq] WRITE: ADDR=0x00000064 DATA=0x1a9e77fa
# UVM_INFO ../env/apb_agent/apb_monitor.sv(81) @ 485000: uvm_test_top.env.agent.monitor [apb_monitor] Collected: T#0 | UNKNOWN_SEQ | ADDR=0x00000064 WRITE=0 DATA=0x1a9e77fa RDATA=0x1a9e77fa SLVERR=0
# UVM_INFO ../env/apb_scoreboard.sv(73) @ 485000: uvm_test_top.env.scoreboard [apb_scoreboard] T#6 [READ PASS] ADDR=0x00000064 RDATA=0x1a9e77fa
# UVM_INFO ../seq/apb_wr_rd_seq.sv(56) @ 485000: uvm_test_top.env.agent.sequencer@@wr_rd_seq [apb_wr_rd_seq] READ : ADDR=0x00000064 RDATA=0x1a9e77fa
# UVM_INFO ../env/apb_agent/apb_monitor.sv(81) @ 535000: uvm_test_top.env.agent.monitor [apb_monitor] Collected: T#0 | UNKNOWN_SEQ | ADDR=0x0000030c WRITE=1 DATA=0x8253057f RDATA=0x1a9e77fa SLVERR=0
# UVM_INFO ../seq/apb_wr_rd_seq.sv(41) @ 535000: uvm_test_top.env.agent.sequencer@@wr_rd_seq [apb_wr_rd_seq] WRITE: ADDR=0x0000030c DATA=0x8253057f
# UVM_INFO ../env/apb_agent/apb_monitor.sv(81) @ 615000: uvm_test_top.env.agent.monitor [apb_monitor] Collected: T#0 | UNKNOWN_SEQ | ADDR=0x0000030c WRITE=0 DATA=0x8253057f RDATA=0x8253057f SLVERR=0
# UVM_INFO ../env/apb_scoreboard.sv(73) @ 615000: uvm_test_top.env.scoreboard [apb_scoreboard] T#8 [READ PASS] ADDR=0x0000030c RDATA=0x8253057f
# UVM_INFO ../seq/apb_wr_rd_seq.sv(56) @ 615000: uvm_test_top.env.agent.sequencer@@wr_rd_seq [apb_wr_rd_seq] READ : ADDR=0x0000030c RDATA=0x8253057f
# UVM_INFO ../env/apb_agent/apb_monitor.sv(81) @ 685000: uvm_test_top.env.agent.monitor [apb_monitor] Collected: T#0 | UNKNOWN_SEQ | ADDR=0x000002a0 WRITE=1 DATA=0x661def78 RDATA=0x8253057f SLVERR=0
# UVM_INFO ../seq/apb_wr_rd_seq.sv(41) @ 685000: uvm_test_top.env.agent.sequencer@@wr_rd_seq [apb_wr_rd_seq] WRITE: ADDR=0x000002a0 DATA=0x661def78
# UVM_INFO ../env/apb_agent/apb_monitor.sv(81) @ 725000: uvm_test_top.env.agent.monitor [apb_monitor] Collected: T#0 | UNKNOWN_SEQ | ADDR=0x000002a0 WRITE=0 DATA=0x661def78 RDATA=0x661def78 SLVERR=0
# UVM_INFO ../env/apb_scoreboard.sv(73) @ 725000: uvm_test_top.env.scoreboard [apb_scoreboard] T#10 [READ PASS] ADDR=0x000002a0 RDATA=0x661def78
# UVM_INFO ../seq/apb_wr_rd_seq.sv(56) @ 725000: uvm_test_top.env.agent.sequencer@@wr_rd_seq [apb_wr_rd_seq] READ : ADDR=0x000002a0 RDATA=0x661def78
# UVM_INFO ../env/apb_agent/apb_monitor.sv(81) @ 785000: uvm_test_top.env.agent.monitor [apb_monitor] Collected: T#0 | UNKNOWN_SEQ | ADDR=0x0000010c WRITE=1 DATA=0x194b06c6 RDATA=0x661def78 SLVERR=0
# UVM_INFO ../seq/apb_wr_rd_seq.sv(41) @ 785000: uvm_test_top.env.agent.sequencer@@wr_rd_seq [apb_wr_rd_seq] WRITE: ADDR=0x0000010c DATA=0x194b06c6
# UVM_INFO ../env/apb_agent/apb_monitor.sv(81) @ 845000: uvm_test_top.env.agent.monitor [apb_monitor] Collected: T#0 | UNKNOWN_SEQ | ADDR=0x0000010c WRITE=0 DATA=0x194b06c6 RDATA=0x194b06c6 SLVERR=0
# UVM_INFO ../env/apb_scoreboard.sv(73) @ 845000: uvm_test_top.env.scoreboard [apb_scoreboard] T#12 [READ PASS] ADDR=0x0000010c RDATA=0x194b06c6
# UVM_INFO ../seq/apb_wr_rd_seq.sv(56) @ 845000: uvm_test_top.env.agent.sequencer@@wr_rd_seq [apb_wr_rd_seq] READ : ADDR=0x0000010c RDATA=0x194b06c6
# UVM_INFO ../env/apb_agent/apb_monitor.sv(81) @ 905000: uvm_test_top.env.agent.monitor [apb_monitor] Collected: T#0 | UNKNOWN_SEQ | ADDR=0x000003dc WRITE=1 DATA=0xcc6c05ab RDATA=0x194b06c6 SLVERR=0
# UVM_INFO ../seq/apb_wr_rd_seq.sv(41) @ 905000: uvm_test_top.env.agent.sequencer@@wr_rd_seq [apb_wr_rd_seq] WRITE: ADDR=0x000003dc DATA=0xcc6c05ab
# UVM_INFO ../env/apb_agent/apb_monitor.sv(81) @ 955000: uvm_test_top.env.agent.monitor [apb_monitor] Collected: T#0 | UNKNOWN_SEQ | ADDR=0x000003dc WRITE=0 DATA=0xcc6c05ab RDATA=0xcc6c05ab SLVERR=0
# UVM_INFO ../env/apb_scoreboard.sv(73) @ 955000: uvm_test_top.env.scoreboard [apb_scoreboard] T#14 [READ PASS] ADDR=0x000003dc RDATA=0xcc6c05ab
# UVM_INFO ../seq/apb_wr_rd_seq.sv(56) @ 955000: uvm_test_top.env.agent.sequencer@@wr_rd_seq [apb_wr_rd_seq] READ : ADDR=0x000003dc RDATA=0xcc6c05ab
# UVM_INFO ../env/apb_agent/apb_monitor.sv(81) @ 995000: uvm_test_top.env.agent.monitor [apb_monitor] Collected: T#0 | UNKNOWN_SEQ | ADDR=0x000002ac WRITE=1 DATA=0xdbf3cea6 RDATA=0xcc6c05ab SLVERR=0
# UVM_INFO ../seq/apb_wr_rd_seq.sv(41) @ 995000: uvm_test_top.env.agent.sequencer@@wr_rd_seq [apb_wr_rd_seq] WRITE: ADDR=0x000002ac DATA=0xdbf3cea6
# UVM_INFO ../env/apb_agent/apb_monitor.sv(81) @ 1085000: uvm_test_top.env.agent.monitor [apb_monitor] Collected: T#0 | UNKNOWN_SEQ | ADDR=0x000002ac WRITE=0 DATA=0xdbf3cea6 RDATA=0xdbf3cea6 SLVERR=0
# UVM_INFO ../env/apb_scoreboard.sv(73) @ 1085000: uvm_test_top.env.scoreboard [apb_scoreboard] T#16 [READ PASS] ADDR=0x000002ac RDATA=0xdbf3cea6
# UVM_INFO ../seq/apb_wr_rd_seq.sv(56) @ 1085000: uvm_test_top.env.agent.sequencer@@wr_rd_seq [apb_wr_rd_seq] READ : ADDR=0x000002ac RDATA=0xdbf3cea6
# UVM_INFO ../env/apb_agent/apb_monitor.sv(81) @ 1125000: uvm_test_top.env.agent.monitor [apb_monitor] Collected: T#0 | UNKNOWN_SEQ | ADDR=0x00000064 WRITE=1 DATA=0x7bc94842 RDATA=0xdbf3cea6 SLVERR=0
# UVM_INFO ../seq/apb_wr_rd_seq.sv(41) @ 1125000: uvm_test_top.env.agent.sequencer@@wr_rd_seq [apb_wr_rd_seq] WRITE: ADDR=0x00000064 DATA=0x7bc94842
# UVM_INFO ../env/apb_agent/apb_monitor.sv(81) @ 1215000: uvm_test_top.env.agent.monitor [apb_monitor] Collected: T#0 | UNKNOWN_SEQ | ADDR=0x00000064 WRITE=0 DATA=0x7bc94842 RDATA=0x7bc94842 SLVERR=0
# UVM_INFO ../env/apb_scoreboard.sv(73) @ 1215000: uvm_test_top.env.scoreboard [apb_scoreboard] T#18 [READ PASS] ADDR=0x00000064 RDATA=0x7bc94842
# UVM_INFO ../seq/apb_wr_rd_seq.sv(56) @ 1215000: uvm_test_top.env.agent.sequencer@@wr_rd_seq [apb_wr_rd_seq] READ : ADDR=0x00000064 RDATA=0x7bc94842
# UVM_INFO ../env/apb_agent/apb_monitor.sv(81) @ 1285000: uvm_test_top.env.agent.monitor [apb_monitor] Collected: T#0 | UNKNOWN_SEQ | ADDR=0x00000074 WRITE=1 DATA=0x10d0b823 RDATA=0x7bc94842 SLVERR=0
# UVM_INFO ../seq/apb_wr_rd_seq.sv(41) @ 1285000: uvm_test_top.env.agent.sequencer@@wr_rd_seq [apb_wr_rd_seq] WRITE: ADDR=0x00000074 DATA=0x10d0b823
# UVM_INFO ../env/apb_agent/apb_monitor.sv(81) @ 1365000: uvm_test_top.env.agent.monitor [apb_monitor] Collected: T#0 | UNKNOWN_SEQ | ADDR=0x00000074 WRITE=0 DATA=0x10d0b823 RDATA=0x10d0b823 SLVERR=0
# UVM_INFO ../env/apb_scoreboard.sv(73) @ 1365000: uvm_test_top.env.scoreboard [apb_scoreboard] T#20 [READ PASS] ADDR=0x00000074 RDATA=0x10d0b823
# UVM_INFO ../seq/apb_wr_rd_seq.sv(56) @ 1365000: uvm_test_top.env.agent.sequencer@@wr_rd_seq [apb_wr_rd_seq] READ : ADDR=0x00000074 RDATA=0x10d0b823
# UVM_INFO ../env/apb_agent/apb_monitor.sv(81) @ 1415000: uvm_test_top.env.agent.monitor [apb_monitor] Collected: T#0 | UNKNOWN_SEQ | ADDR=0x00000298 WRITE=1 DATA=0x2b6e3fde RDATA=0x10d0b823 SLVERR=0
# UVM_INFO ../seq/apb_wr_rd_seq.sv(41) @ 1415000: uvm_test_top.env.agent.sequencer@@wr_rd_seq [apb_wr_rd_seq] WRITE: ADDR=0x00000298 DATA=0x2b6e3fde
# UVM_INFO ../env/apb_agent/apb_monitor.sv(81) @ 1455000: uvm_test_top.env.agent.monitor [apb_monitor] Collected: T#0 | UNKNOWN_SEQ | ADDR=0x00000298 WRITE=0 DATA=0x2b6e3fde RDATA=0x2b6e3fde SLVERR=0
# UVM_INFO ../env/apb_scoreboard.sv(73) @ 1455000: uvm_test_top.env.scoreboard [apb_scoreboard] T#22 [READ PASS] ADDR=0x00000298 RDATA=0x2b6e3fde
# UVM_INFO ../seq/apb_wr_rd_seq.sv(56) @ 1455000: uvm_test_top.env.agent.sequencer@@wr_rd_seq [apb_wr_rd_seq] READ : ADDR=0x00000298 RDATA=0x2b6e3fde
# UVM_INFO ../env/apb_agent/apb_monitor.sv(81) @ 1505000: uvm_test_top.env.agent.monitor [apb_monitor] Collected: T#0 | UNKNOWN_SEQ | ADDR=0x00000344 WRITE=1 DATA=0xb0a4374e RDATA=0x2b6e3fde SLVERR=0
# UVM_INFO ../seq/apb_wr_rd_seq.sv(41) @ 1505000: uvm_test_top.env.agent.sequencer@@wr_rd_seq [apb_wr_rd_seq] WRITE: ADDR=0x00000344 DATA=0xb0a4374e
# UVM_INFO ../env/apb_agent/apb_monitor.sv(81) @ 1595000: uvm_test_top.env.agent.monitor [apb_monitor] Collected: T#0 | UNKNOWN_SEQ | ADDR=0x00000344 WRITE=0 DATA=0xb0a4374e RDATA=0xb0a4374e SLVERR=0
# UVM_INFO ../env/apb_scoreboard.sv(73) @ 1595000: uvm_test_top.env.scoreboard [apb_scoreboard] T#24 [READ PASS] ADDR=0x00000344 RDATA=0xb0a4374e
# UVM_INFO ../seq/apb_wr_rd_seq.sv(56) @ 1595000: uvm_test_top.env.agent.sequencer@@wr_rd_seq [apb_wr_rd_seq] READ : ADDR=0x00000344 RDATA=0xb0a4374e
# UVM_INFO ../env/apb_agent/apb_monitor.sv(81) @ 1635000: uvm_test_top.env.agent.monitor [apb_monitor] Collected: T#0 | UNKNOWN_SEQ | ADDR=0x000001e0 WRITE=1 DATA=0x6c985566 RDATA=0xb0a4374e SLVERR=0
# UVM_INFO ../seq/apb_wr_rd_seq.sv(41) @ 1635000: uvm_test_top.env.agent.sequencer@@wr_rd_seq [apb_wr_rd_seq] WRITE: ADDR=0x000001e0 DATA=0x6c985566
# UVM_INFO ../env/apb_agent/apb_monitor.sv(81) @ 1695000: uvm_test_top.env.agent.monitor [apb_monitor] Collected: T#0 | UNKNOWN_SEQ | ADDR=0x000001e0 WRITE=0 DATA=0x6c985566 RDATA=0x6c985566 SLVERR=0
# UVM_INFO ../env/apb_scoreboard.sv(73) @ 1695000: uvm_test_top.env.scoreboard [apb_scoreboard] T#26 [READ PASS] ADDR=0x000001e0 RDATA=0x6c985566
# UVM_INFO ../seq/apb_wr_rd_seq.sv(56) @ 1695000: uvm_test_top.env.agent.sequencer@@wr_rd_seq [apb_wr_rd_seq] READ : ADDR=0x000001e0 RDATA=0x6c985566
# UVM_INFO ../env/apb_agent/apb_monitor.sv(81) @ 1735000: uvm_test_top.env.agent.monitor [apb_monitor] Collected: T#0 | UNKNOWN_SEQ | ADDR=0x000000e8 WRITE=1 DATA=0x0ea487e3 RDATA=0x6c985566 SLVERR=0
# UVM_INFO ../seq/apb_wr_rd_seq.sv(41) @ 1735000: uvm_test_top.env.agent.sequencer@@wr_rd_seq [apb_wr_rd_seq] WRITE: ADDR=0x000000e8 DATA=0x0ea487e3
# UVM_INFO ../env/apb_agent/apb_monitor.sv(81) @ 1785000: uvm_test_top.env.agent.monitor [apb_monitor] Collected: T#0 | UNKNOWN_SEQ | ADDR=0x000000e8 WRITE=0 DATA=0x0ea487e3 RDATA=0x0ea487e3 SLVERR=0
# UVM_INFO ../env/apb_scoreboard.sv(73) @ 1785000: uvm_test_top.env.scoreboard [apb_scoreboard] T#28 [READ PASS] ADDR=0x000000e8 RDATA=0x0ea487e3
# UVM_INFO ../seq/apb_wr_rd_seq.sv(56) @ 1785000: uvm_test_top.env.agent.sequencer@@wr_rd_seq [apb_wr_rd_seq] READ : ADDR=0x000000e8 RDATA=0x0ea487e3
# UVM_INFO ../env/apb_agent/apb_monitor.sv(81) @ 1875000: uvm_test_top.env.agent.monitor [apb_monitor] Collected: T#0 | UNKNOWN_SEQ | ADDR=0x00000358 WRITE=1 DATA=0xdc438cab RDATA=0x0ea487e3 SLVERR=0
# UVM_INFO ../seq/apb_wr_rd_seq.sv(41) @ 1875000: uvm_test_top.env.agent.sequencer@@wr_rd_seq [apb_wr_rd_seq] WRITE: ADDR=0x00000358 DATA=0xdc438cab
# UVM_INFO ../env/apb_agent/apb_monitor.sv(81) @ 1985000: uvm_test_top.env.agent.monitor [apb_monitor] Collected: T#0 | UNKNOWN_SEQ | ADDR=0x00000358 WRITE=0 DATA=0xdc438cab RDATA=0xdc438cab SLVERR=0
# UVM_INFO ../env/apb_scoreboard.sv(73) @ 1985000: uvm_test_top.env.scoreboard [apb_scoreboard] T#30 [READ PASS] ADDR=0x00000358 RDATA=0xdc438cab
# UVM_INFO ../seq/apb_wr_rd_seq.sv(56) @ 1985000: uvm_test_top.env.agent.sequencer@@wr_rd_seq [apb_wr_rd_seq] READ : ADDR=0x00000358 RDATA=0xdc438cab
# UVM_INFO ../env/apb_agent/apb_monitor.sv(81) @ 2055000: uvm_test_top.env.agent.monitor [apb_monitor] Collected: T#0 | UNKNOWN_SEQ | ADDR=0x00000054 WRITE=1 DATA=0xbcc1bec7 RDATA=0xdc438cab SLVERR=0
# UVM_INFO ../seq/apb_wr_rd_seq.sv(41) @ 2055000: uvm_test_top.env.agent.sequencer@@wr_rd_seq [apb_wr_rd_seq] WRITE: ADDR=0x00000054 DATA=0xbcc1bec7
# UVM_INFO ../env/apb_agent/apb_monitor.sv(81) @ 2135000: uvm_test_top.env.agent.monitor [apb_monitor] Collected: T#0 | UNKNOWN_SEQ | ADDR=0x00000054 WRITE=0 DATA=0xbcc1bec7 RDATA=0xbcc1bec7 SLVERR=0
# UVM_INFO ../env/apb_scoreboard.sv(73) @ 2135000: uvm_test_top.env.scoreboard [apb_scoreboard] T#32 [READ PASS] ADDR=0x00000054 RDATA=0xbcc1bec7
# UVM_INFO ../seq/apb_wr_rd_seq.sv(56) @ 2135000: uvm_test_top.env.agent.sequencer@@wr_rd_seq [apb_wr_rd_seq] READ : ADDR=0x00000054 RDATA=0xbcc1bec7
# UVM_INFO ../env/apb_agent/apb_monitor.sv(81) @ 2175000: uvm_test_top.env.agent.monitor [apb_monitor] Collected: T#0 | UNKNOWN_SEQ | ADDR=0x00000158 WRITE=1 DATA=0xf97072f5 RDATA=0xbcc1bec7 SLVERR=0
# UVM_INFO ../seq/apb_wr_rd_seq.sv(41) @ 2175000: uvm_test_top.env.agent.sequencer@@wr_rd_seq [apb_wr_rd_seq] WRITE: ADDR=0x00000158 DATA=0xf97072f5
# UVM_INFO ../env/apb_agent/apb_monitor.sv(81) @ 2275000: uvm_test_top.env.agent.monitor [apb_monitor] Collected: T#0 | UNKNOWN_SEQ | ADDR=0x00000158 WRITE=0 DATA=0xf97072f5 RDATA=0xf97072f5 SLVERR=0
# UVM_INFO ../env/apb_scoreboard.sv(73) @ 2275000: uvm_test_top.env.scoreboard [apb_scoreboard] T#34 [READ PASS] ADDR=0x00000158 RDATA=0xf97072f5
# UVM_INFO ../seq/apb_wr_rd_seq.sv(56) @ 2275000: uvm_test_top.env.agent.sequencer@@wr_rd_seq [apb_wr_rd_seq] READ : ADDR=0x00000158 RDATA=0xf97072f5
# UVM_INFO ../env/apb_agent/apb_monitor.sv(81) @ 2365000: uvm_test_top.env.agent.monitor [apb_monitor] Collected: T#0 | UNKNOWN_SEQ | ADDR=0x000002c0 WRITE=1 DATA=0x11bf105e RDATA=0xf97072f5 SLVERR=0
# UVM_INFO ../seq/apb_wr_rd_seq.sv(41) @ 2365000: uvm_test_top.env.agent.sequencer@@wr_rd_seq [apb_wr_rd_seq] WRITE: ADDR=0x000002c0 DATA=0x11bf105e
# UVM_INFO ../env/apb_agent/apb_monitor.sv(81) @ 2405000: uvm_test_top.env.agent.monitor [apb_monitor] Collected: T#0 | UNKNOWN_SEQ | ADDR=0x000002c0 WRITE=0 DATA=0x11bf105e RDATA=0x11bf105e SLVERR=0
# UVM_INFO ../env/apb_scoreboard.sv(73) @ 2405000: uvm_test_top.env.scoreboard [apb_scoreboard] T#36 [READ PASS] ADDR=0x000002c0 RDATA=0x11bf105e
# UVM_INFO ../seq/apb_wr_rd_seq.sv(56) @ 2405000: uvm_test_top.env.agent.sequencer@@wr_rd_seq [apb_wr_rd_seq] READ : ADDR=0x000002c0 RDATA=0x11bf105e
# UVM_INFO ../env/apb_agent/apb_monitor.sv(81) @ 2485000: uvm_test_top.env.agent.monitor [apb_monitor] Collected: T#0 | UNKNOWN_SEQ | ADDR=0x00000308 WRITE=1 DATA=0xcb6878cc RDATA=0x11bf105e SLVERR=0
# UVM_INFO ../seq/apb_wr_rd_seq.sv(41) @ 2485000: uvm_test_top.env.agent.sequencer@@wr_rd_seq [apb_wr_rd_seq] WRITE: ADDR=0x00000308 DATA=0xcb6878cc
# UVM_INFO ../env/apb_agent/apb_monitor.sv(81) @ 2565000: uvm_test_top.env.agent.monitor [apb_monitor] Collected: T#0 | UNKNOWN_SEQ | ADDR=0x00000308 WRITE=0 DATA=0xcb6878cc RDATA=0xcb6878cc SLVERR=0
# UVM_INFO ../env/apb_scoreboard.sv(73) @ 2565000: uvm_test_top.env.scoreboard [apb_scoreboard] T#38 [READ PASS] ADDR=0x00000308 RDATA=0xcb6878cc
# UVM_INFO ../seq/apb_wr_rd_seq.sv(56) @ 2565000: uvm_test_top.env.agent.sequencer@@wr_rd_seq [apb_wr_rd_seq] READ : ADDR=0x00000308 RDATA=0xcb6878cc
# UVM_INFO ../env/apb_agent/apb_monitor.sv(81) @ 2635000: uvm_test_top.env.agent.monitor [apb_monitor] Collected: T#0 | UNKNOWN_SEQ | ADDR=0x00000334 WRITE=1 DATA=0xea33c831 RDATA=0xcb6878cc SLVERR=0
# UVM_INFO ../seq/apb_wr_rd_seq.sv(41) @ 2635000: uvm_test_top.env.agent.sequencer@@wr_rd_seq [apb_wr_rd_seq] WRITE: ADDR=0x00000334 DATA=0xea33c831
# UVM_INFO ../env/apb_agent/apb_monitor.sv(81) @ 2675000: uvm_test_top.env.agent.monitor [apb_monitor] Collected: T#0 | UNKNOWN_SEQ | ADDR=0x00000334 WRITE=0 DATA=0xea33c831 RDATA=0xea33c831 SLVERR=0
# UVM_INFO ../env/apb_scoreboard.sv(73) @ 2675000: uvm_test_top.env.scoreboard [apb_scoreboard] T#40 [READ PASS] ADDR=0x00000334 RDATA=0xea33c831
# UVM_INFO ../seq/apb_wr_rd_seq.sv(56) @ 2675000: uvm_test_top.env.agent.sequencer@@wr_rd_seq [apb_wr_rd_seq] READ : ADDR=0x00000334 RDATA=0xea33c831
# UVM_INFO ../test/apb_base_test.sv(55) @ 2675000: uvm_test_top [apb_base_test] === All sequences completed ===
# UVM_INFO verilog_src/uvm-1.1d/src/base/uvm_objection.svh(1268) @ 2675000: reporter [TEST_DONE] 'run' phase is ready to proceed to the 'extract' phase
# UVM_INFO ../env/apb_scoreboard.sv(87) @ 2675000: uvm_test_top.env.scoreboard [apb_scoreboard] 
# 
# UVM_INFO ../env/apb_scoreboard.sv(88) @ 2675000: uvm_test_top.env.scoreboard [apb_scoreboard] ================== SCOREBOARD REPORT ==================
# UVM_INFO ../env/apb_scoreboard.sv(89) @ 2675000: uvm_test_top.env.scoreboard [apb_scoreboard] Total Transactions   : 40
# UVM_INFO ../env/apb_scoreboard.sv(90) @ 2675000: uvm_test_top.env.scoreboard [apb_scoreboard] Write Transactions   : 20
# UVM_INFO ../env/apb_scoreboard.sv(91) @ 2675000: uvm_test_top.env.scoreboard [apb_scoreboard] Read Transactions    : 20
# UVM_INFO ../env/apb_scoreboard.sv(92) @ 2675000: uvm_test_top.env.scoreboard [apb_scoreboard] Error Transactions   : 0
# UVM_INFO ../env/apb_scoreboard.sv(93) @ 2675000: uvm_test_top.env.scoreboard [apb_scoreboard] Passed Transactions  : 40
# UVM_INFO ../env/apb_scoreboard.sv(94) @ 2675000: uvm_test_top.env.scoreboard [apb_scoreboard] Failed Transactions  : 0
# UVM_INFO ../env/apb_scoreboard.sv(97) @ 2675000: uvm_test_top.env.scoreboard [apb_scoreboard]                   *** TEST PASSED ***
# UVM_INFO ../env/apb_scoreboard.sv(101) @ 2675000: uvm_test_top.env.scoreboard [apb_scoreboard] ===================================================
# 
# UVM_INFO ../env/apb_env.sv(54) @ 2675000: uvm_test_top.env [apb_env] Enviroment report phase completed
# UVM_INFO ../test/apb_base_test.sv(62) @ 2675000: uvm_test_top [apb_base_test] APB Base Test completed
# 
# --- UVM Report Summary ---
# 
# ** Report counts by severity
# UVM_INFO :  125
# UVM_WARNING :    0
# UVM_ERROR :    0
# UVM_FATAL :    0
# ** Report counts by id
# [AGT]     1
# [Questa UVM]     2
# [RNTST]     1
# [TB_TOP]     1
# [TEST_DONE]     1
# [apb_agent]     1
# [apb_base_test]     4
# [apb_env]     3
# [apb_monitor]    41
# [apb_scoreboard]    30
# [apb_wr_rd_seq]    40
# ** Note: $finish    : /cadtools/mentor/Questa_10.6b/questasim/linux_x86_64/../verilog_src/uvm-1.1d/src/base/uvm_root.svh(430)
#    Time: 2675 ns  Iteration: 63  Instance: /tb_top
# End time: 12:53:10 on May 15,2026, Elapsed time: 0:00:33
# Errors: 0, Warnings: 0
